name,type,start_time,duration,"protected_id","data","index","byte_framing_error","header_sync_expected","checksum","checksum_mismatch"
"LIN","header_break",0.019344875,0.000806938,,,,,,,
"LIN","header_sync",0.020230375,0.000494563,,,,,,,
"LIN","header_pid",0.02075125,0.000494563,0x000000000000003D,,,,,,
"LIN","header_break",0.02926725,0.000777562,,,,,,,
"LIN","header_sync",0.03015275,0.000494563,,,,,,,
"LIN","header_pid",0.030673688,0.000494563,0x000000000000000F,,,,,,
"LIN","header_break",0.069270562,0.0007775,,,,,,,
"LIN","header_sync",0.070156063,0.000494562,,,,,,,
"LIN","header_pid",0.070676937,0.000494563,0x000000000000003D,,,,,,
"LIN","header_break",0.079364875,0.000777563,,,,,,,
"LIN","header_sync",0.080250375,0.000494563,,,,,,,
"LIN","header_pid",0.080771312,0.000494563,0x000000000000001C,,,,,,
"LIN","data",0.081302187,0.000494563,,0x00000000000000FE,0x0000000000000000,,,,
"LIN","data",0.081822937,0.000494563,,0x00000000000000FC,0x0000000000000001,,,,
"LIN","data",0.082343875,0.000494563,,0x0000000000000001,0x0000000000000002,,,,
"LIN","data",0.08286475,0.000494563,,0x00000000000000F8,0x0000000000000003,,,,
"LIN","data_or_checksum",0.083385687,0.000494563,,0x000000000000006D,0x0000000000000004,,,0x000000000000006D,
"LIN","header_break",0.119393375,0.0007775,,,,,,,
"LIN","header_sync",0.120278875,0.000494563,,,,,,,
"LIN","header_pid",0.12079975,0.000494563,0x000000000000003D,,,,,,
"LIN","header_break",0.129302937,0.000777563,,,,,,,
"LIN","header_sync",0.130188438,0.000494563,,,,,,,
"LIN","header_pid",0.130709375,0.000494563,0x000000000000000F,,,,,,
"LIN","header_break",0.169279,0.0007775,,,,,,,
"LIN","header_sync",0.1701645,0.000494563,,,,,,,
"LIN","header_pid",0.170685375,0.000494563,0x000000000000003D,,,,,,
"LIN","header_break",0.179328313,0.0007775,,,,,,,
"LIN","header_sync",0.180213812,0.000494563,,,,,,,
"LIN","header_pid",0.180734687,0.000494563,0x000000000000001C,,,,,,
"LIN","data",0.18126275,0.000494562,,0x00000000000000FE,0x0000000000000000,,,,
"LIN","data",0.181783125,0.000494563,,0x00000000000000FC,0x0000000000000001,,,,
"LIN","data",0.182304,0.000494563,,0x0000000000000001,0x0000000000000002,,,,
"LIN","data",0.182824938,0.000494563,,0x00000000000000F8,0x0000000000000003,,,,
"LIN","data_or_checksum",0.183345813,0.000494562,,0x000000000000006D,0x0000000000000004,,,0x000000000000006D,
"LIN","header_break",0.219361125,0.0007775,,,,,,,
"LIN","header_sync",0.220246625,0.000494563,,,,,,,
"LIN","header_pid",0.2207675,0.000494562,0x000000000000003D,,,,,,
"LIN","header_break",0.229283938,0.000777562,,,,,,,
"LIN","header_sync",0.230169437,0.000494563,,,,,,,
"LIN","header_pid",0.230690375,0.000494562,0x000000000000000F,,,,,,
"LIN","header_break",0.269286,0.000777563,,,,,,,
"LIN","header_sync",0.2701715,0.000494562,,,,,,,
"LIN","header_pid",0.270692437,0.000494563,0x000000000000003D,,,,,,
"LIN","header_break",0.27927075,0.000777562,,,,,,,
"LIN","header_sync",0.280156313,0.000494563,,,,,,,
"LIN","header_pid",0.280677187,0.000494562,0x000000000000001C,,,,,,
"LIN","data",0.281207,0.000494563,,0x00000000000000FE,0x0000000000000000,,,,
"LIN","data",0.281725563,0.000494562,,0x00000000000000FC,0x0000000000000001,,,,
"LIN","data",0.2822465,0.000494562,,0x0000000000000001,0x0000000000000002,,,,
"LIN","data",0.282767375,0.000494562,,0x00000000000000F8,0x0000000000000003,,,,
"LIN","data_or_checksum",0.283288312,0.000494563,,0x000000000000006D,0x0000000000000004,,,0x000000000000006D,
"LIN","header_break",0.319409875,0.0007775,,,,,,,
"LIN","header_sync",0.320295375,0.000494563,,,,,,,
"LIN","header_pid",0.32081625,0.000494562,0x000000000000003D,,,,,,
"LIN","header_break",0.32934,0.000777562,,,,,,,
"LIN","header_sync",0.3302255,0.000494563,,,,,,,
"LIN","header_pid",0.330746437,0.000494562,0x000000000000000F,,,,,,
"LIN","header_break",0.36929375,0.0007775,,,,,,,
"LIN","header_sync",0.37017925,0.000494562,,,,,,,
"LIN","header_pid",0.370700125,0.000494562,0x000000000000003D,,,,,,
"LIN","header_break",0.379280625,0.000777562,,,,,,,
"LIN","header_sync",0.380166125,0.000494562,,,,,,,
"LIN","header_pid",0.380687063,0.000494562,0x000000000000001C,,,,,,
"LIN","data",0.381216375,0.000494563,,0x00000000000000FE,0x0000000000000000,,,,
"LIN","data",0.381735437,0.000494563,,0x00000000000000FC,0x0000000000000001,,,,
"LIN","data",0.382256312,0.000494563,,0x0000000000000001,0x0000000000000002,,,,
"LIN","data",0.38277725,0.000494562,,0x00000000000000F8,0x0000000000000003,,,,
"LIN","data_or_checksum",0.383298187,0.000494563,,0x000000000000006D,0x0000000000000004,,,0x000000000000006D,
"LIN","header_break",0.419414937,0.0007775,,,,,,,
"LIN","header_sync",0.420300438,0.000494562,,,,,,,
"LIN","header_pid",0.420821312,0.000494563,0x000000000000003D,,,,,,
"LIN","header_break",0.429355875,0.000777562,,,,,,,
"LIN","header_sync",0.430241437,0.000494562,,,,,,,
"LIN","header_pid",0.430762313,0.000494562,0x000000000000000F,,,,,,
"LIN","header_break",0.469301937,0.0007775,,,,,,,
"LIN","header_sync",0.470187438,0.000494562,,,,,,,
"LIN","header_pid",0.470708375,0.000494562,0x000000000000003D,,,,,,
"LIN","header_break",0.479334563,0.000777562,,,,,,,
"LIN","header_sync",0.480220062,0.000494563,,,,,,,
"LIN","header_pid",0.480741,0.000494563,0x000000000000001C,,,,,,
"LIN","data",0.481271312,0.000494563,,0x00000000000000FE,0x0000000000000000,,,,
"LIN","data",0.481789375,0.000494562,,0x00000000000000FC,0x0000000000000001,,,,
"LIN","data",0.48231025,0.000494563,,0x0000000000000001,0x0000000000000002,,,,
"LIN","data",0.482831187,0.000494562,,0x00000000000000F8,0x0000000000000003,,,,
"LIN","data_or_checksum",0.483352125,0.000494562,,0x000000000000006D,0x0000000000000004,,,0x000000000000006D,
"LIN","header_break",0.51942125,0.000777563,,,,,,,
"LIN","header_sync",0.52030675,0.000494562,,,,,,,
"LIN","header_pid",0.520827687,0.000494562,0x000000000000003D,,,,,,
"LIN","header_break",0.529353188,0.0007775,,,,,,,
"LIN","header_sync",0.530238688,0.000494562,,,,,,,
"LIN","header_pid",0.530759563,0.000494563,0x000000000000000F,,,,,,
"LIN","header_break",0.569309313,0.000777562,,,,,,,
"LIN","header_sync",0.570194813,0.000494563,,,,,,,
"LIN","header_pid",0.57071575,0.000494563,0x000000000000003D,,,,,,
"LIN","header_break",0.579398312,0.000777563,,,,,,,
"LIN","header_sync",0.580283875,0.000494563,,,,,,,
"LIN","header_pid",0.58080475,0.000494563,0x000000000000001C,,,,,,
"LIN","data",0.58133275,0.000494563,,0x00000000000000FE,0x0000000000000000,,,,
"LIN","data",0.581853125,0.000494563,,0x00000000000000FC,0x0000000000000001,,,,
"LIN","data",0.582374063,0.000494563,,0x0000000000000001,0x0000000000000002,,,,
"LIN","data",0.582894937,0.000494563,,0x00000000000000F8,0x0000000000000003,,,,
"LIN","data_or_checksum",0.583415875,0.000494563,,0x000000000000006D,0x0000000000000004,,,0x000000000000006D,
"LIN","header_break",0.619392938,0.000777562,,,,,,,
"LIN","header_sync",0.620278438,0.000494563,,,,,,,
"LIN","header_pid",0.620799375,0.000494562,0x000000000000003D,,,,,,
"LIN","header_break",0.629364313,0.000777562,,,,,,,
"LIN","header_sync",0.630249875,0.000494563,,,,,,,
"LIN","header_pid",0.63077075,0.000494562,0x000000000000000F,,,,,,
"LIN","header_break",0.669317938,0.000777562,,,,,,,
"LIN","header_sync",0.670203437,0.000494563,,,,,,,
"LIN","header_pid",0.670724375,0.000494562,0x000000000000003D,,,,,,
"LIN","header_break",0.6793645,0.000777562,,,,,,,
"LIN","header_sync",0.680250062,0.000494563,,,,,,,
"LIN","header_pid",0.680770937,0.000494563,0x000000000000001C,,,,,,
"LIN","data",0.681299813,0.000494562,,0x00000000000000FE,0x0000000000000000,,,,
"LIN","data",0.681819313,0.000494562,,0x00000000000000FC,0x0000000000000001,,,,
"LIN","data",0.68234025,0.000494563,,0x0000000000000001,0x0000000000000002,,,,
"LIN","data",0.682861125,0.000494563,,0x00000000000000F8,0x0000000000000003,,,,
"LIN","data_or_checksum",0.683382062,0.000494563,,0x000000000000006D,0x0000000000000004,,,0x000000000000006D,
"LIN","header_break",0.719435313,0.000777562,,,,,,,
"LIN","header_sync",0.720320813,0.000494563,,,,,,,
"LIN","header_pid",0.72084175,0.000494563,0x000000000000003D,,,,,,
"LIN","header_break",0.729357625,0.000777562,,,,,,,
"LIN","header_sync",0.730243187,0.000494563,,,,,,,
"LIN","header_pid",0.730764063,0.000494563,0x000000000000000F,,,,,,
"LIN","header_break",0.7693235,0.0007775,,,,,,,
"LIN","header_sync",0.770209,0.000494563,,,,,,,
"LIN","header_pid",0.770729937,0.000494563,0x000000000000003D,,,,,,
"LIN","header_break",0.779372625,0.000777562,,,,,,,
"LIN","header_sync",0.780258125,0.000494563,,,,,,,
"LIN","header_pid",0.780779062,0.000494562,0x000000000000001C,,,,,,
"LIN","data",0.781309188,0.000494563,,0x00000000000000FE,0x0000000000000000,,,,
"LIN","data",0.781827438,0.000494562,,0x00000000000000FC,0x0000000000000001,,,,
"LIN","data",0.782348313,0.000494563,,0x0000000000000001,0x0000000000000002,,,,
"LIN","data",0.78286925,0.000494563,,0x00000000000000F8,0x0000000000000003,,,,
"LIN","data_or_checksum",0.783390188,0.000494563,,0x000000000000006D,0x0000000000000004,,,0x000000000000006D,
"LIN","header_break",0.819410688,0.0007775,,,,,,,
"LIN","header_sync",0.820296187,0.000494563,,,,,,,
"LIN","header_pid",0.820817062,0.000494562,0x000000000000003D,,,,,,
"LIN","header_break",0.829368563,0.000777562,,,,,,,
"LIN","header_sync",0.830254063,0.000494563,,,,,,,
"LIN","header_pid",0.830775,0.000494562,0x000000000000000F,,,,,,
"LIN","header_break",0.869330188,0.000777563,,,,,,,
"LIN","header_sync",0.870215688,0.000494562,,,,,,,
"LIN","header_pid",0.870736625,0.000494562,0x000000000000003D,,,,,,
"LIN","header_break",0.879363875,0.000777562,,,,,,,
"LIN","header_sync",0.880249375,0.000494563,,,,,,,
"LIN","header_pid",0.880770313,0.000494562,0x000000000000001C,,,,,,
"LIN","data",0.881299,0.000494562,,0x00000000000000FE,0x0000000000000000,,,,
"LIN","data",0.881818688,0.000494563,,0x00000000000000FC,0x0000000000000001,,,,
"LIN","data",0.882339625,0.000494563,,0x0000000000000001,0x0000000000000002,,,,
"LIN","data",0.8828605,0.000494562,,0x00000000000000F8,0x0000000000000003,,,,
"LIN","data_or_checksum",0.883381437,0.000494563,,0x000000000000006D,0x0000000000000004,,,0x000000000000006D,
"LIN","header_break",0.919565562,0.000777563,,,,,,,
"LIN","header_sync",0.920451062,0.000494563,,,,,,,
"LIN","header_pid",0.920972,0.000494563,0x000000000000003D,,,,,,
"LIN","header_break",0.929338,0.000777563,,,,,,,
"LIN","header_sync",0.9302235,0.000494563,,,,,,,
"LIN","header_pid",0.930744438,0.000494563,0x000000000000000F,,,,,,
"LIN","header_break",0.969340375,0.0007775,,,,,,,
"LIN","header_sync",0.970225875,0.000494563,,,,,,,
"LIN","header_pid",0.97074675,0.000494563,0x000000000000003D,,,,,,
"LIN","header_break",0.979383688,0.0007775,,,,,,,
"LIN","header_sync",0.980269188,0.000494563,,,,,,,
"LIN","header_pid",0.980790125,0.000494563,0x000000000000001C,,,,,,
"LIN","data",0.981318125,0.000494562,,0x00000000000000FE,0x0000000000000000,,,,
"LIN","data",0.981838437,0.000494563,,0x00000000000000FC,0x0000000000000001,,,,
"LIN","data",0.982359375,0.000494563,,0x0000000000000001,0x0000000000000002,,,,
"LIN","data",0.982880312,0.000494563,,0x00000000000000F8,0x0000000000000003,,,,
"LIN","data_or_checksum",0.983401188,0.000494562,,0x000000000000006D,0x0000000000000004,,,0x000000000000006D,
"LIN","header_break",1.019422688,0.000777562,,,,,,,
"LIN","header_sync",1.020308187,0.000494563,,,,,,,
"LIN","header_pid",1.020829125,0.000494563,0x000000000000003D,,,,,,
"LIN","header_break",1.029384438,0.000777562,,,,,,,
"LIN","header_sync",1.030269937,0.000494563,,,,,,,
"LIN","header_pid",1.030790875,0.000494562,0x000000000000000F,,,,,,
"LIN","header_break",1.0693495,0.000777562,,,,,,,
"LIN","header_sync",1.070235,0.000494562,,,,,,,
"LIN","header_pid",1.070755937,0.000494563,0x000000000000003D,,,,,,
"LIN","header_break",1.07938375,0.000777562,,,,,,,
"LIN","header_sync",1.080269313,0.000494562,,,,,,,
"LIN","header_pid",1.080790188,0.000494563,0x000000000000001C,,,,,,
"LIN","data",1.081321,0.000494563,,0x00000000000000FE,0x0000000000000000,,,,
"LIN","data",1.081841812,0.000494562,,0x00000000000000FC,0x0000000000000001,,,,
"LIN","data",1.08236275,0.000494563,,0x0000000000000001,0x0000000000000002,,,,
"LIN","data",1.082883625,0.000494563,,0x00000000000000F8,0x0000000000000003,,,,
"LIN","data_or_checksum",1.083404562,0.000494563,,0x000000000000006D,0x0000000000000004,,,0x000000000000006D,
"LIN","header_break",1.119466813,0.000777562,,,,,,,
"LIN","header_sync",1.120352312,0.000494563,,,,,,,
"LIN","header_pid",1.12087325,0.000494562,0x000000000000003D,,,,,,
"LIN","header_break",1.129402812,0.0007775,,,,,,,
"LIN","header_sync",1.130288313,0.000494562,,,,,,,
"LIN","header_pid",1.13080925,0.000494562,0x000000000000000F,,,,,,
"LIN","header_break",1.169359688,0.0007775,,,,,,,
"LIN","header_sync",1.170245187,0.000494563,,,,,,,
"LIN","header_pid",1.170766063,0.000494562,0x000000000000003D,,,,,,
"LIN","header_break",1.179382375,0.000777562,,,,,,,
"LIN","header_sync",1.180267875,0.000494563,,,,,,,
"LIN","header_pid",1.180788812,0.000494563,0x000000000000001C,,,,,,
"LIN","data",1.181317375,0.000494563,,0x00000000000000FE,0x0000000000000000,,,,
"LIN","data",1.181837187,0.000494562,,0x00000000000000FC,0x0000000000000001,,,,
"LIN","data",1.182358063,0.000494562,,0x0000000000000001,0x0000000000000002,,,,
"LIN","data",1.182879,0.000494563,,0x00000000000000F8,0x0000000000000003,,,,
"LIN","data_or_checksum",1.183399937,0.000494563,,0x000000000000006D,0x0000000000000004,,,0x000000000000006D,
"LIN","header_break",1.219440375,0.000777562,,,,,,,
"LIN","header_sync",1.220325937,0.000494563,,,,,,,
"LIN","header_pid",1.220846813,0.000494563,0x000000000000003D,,,,,,
"LIN","header_break",1.229411438,0.000777562,,,,,,,
"LIN","header_sync",1.230296937,0.000494563,,,,,,,
"LIN","header_pid",1.230817875,0.000494563,0x000000000000000F,,,,,,
"LIN","header_break",1.269363562,0.0007775,,,,,,,
"LIN","header_sync",1.270249063,0.000494562,,,,,,,
"LIN","header_pid",1.27077,0.000494563,0x000000000000003D,,,,,,
"LIN","header_break",1.279350063,0.000777562,,,,,,,
"LIN","header_sync",1.280235562,0.000494563,,,,,,,
"LIN","header_pid",1.2807565,0.000494562,0x000000000000001C,,,,,,
"LIN","data",1.281287625,0.000494563,,0x00000000000000FE,0x0000000000000000,,,,
"LIN","data",1.281808125,0.000494563,,0x00000000000000FC,0x0000000000000001,,,,
"LIN","data",1.282329062,0.000494563,,0x0000000000000001,0x0000000000000002,,,,
"LIN","data",1.282849937,0.000494563,,0x00000000000000F8,0x0000000000000003,,,,
"LIN","data_or_checksum",1.283370875,0.000494563,,0x000000000000006D,0x0000000000000004,,,0x000000000000006D,
"LIN","header_break",1.319488375,0.0007775,,,,,,,
"LIN","header_sync",1.320373875,0.000494563,,,,,,,
"LIN","header_pid",1.32089475,0.000494563,0x000000000000003D,,,,,,
"LIN","header_break",1.329405938,0.000777562,,,,,,,
"LIN","header_sync",1.330291437,0.000494563,,,,,,,
"LIN","header_pid",1.330812375,0.000494563,0x000000000000000F,,,,,,
"LIN","header_break",1.369372312,0.0007775,,,,,,,
"LIN","header_sync",1.370257813,0.000494562,,,,,,,
"LIN","header_pid",1.370778688,0.000494562,0x000000000000003D,,,,,,
"LIN","header_break",1.379419187,0.0007775,,,,,,,
"LIN","header_sync",1.380304688,0.000494563,,,,,,,
"LIN","header_pid",1.380825563,0.000494562,0x000000000000001C,,,,,,
"LIN","data",1.381355625,0.000494562,,0x00000000000000FE,0x0000000000000000,,,,
"LIN","data",1.381873937,0.000494562,,0x00000000000000FC,0x0000000000000001,,,,
"LIN","data",1.382394875,0.000494563,,0x0000000000000001,0x0000000000000002,,,,
"LIN","data",1.38291575,0.000494563,,0x00000000000000F8,0x0000000000000003,,,,
"LIN","data_or_checksum",1.383436687,0.000494563,,0x000000000000006D,0x0000000000000004,,,0x000000000000006D,
"LIN","header_break",1.419493813,0.000777562,,,,,,,
"LIN","header_sync",1.420379312,0.000494563,,,,,,,
"LIN","header_pid",1.42090025,0.000494562,0x000000000000003D,,,,,,
"LIN","header_break",1.429378375,0.0007775,,,,,,,
"LIN","header_sync",1.430263875,0.000494562,,,,,,,
"LIN","header_pid",1.43078475,0.000494563,0x000000000000000F,,,,,,
"LIN","header_break",1.469381188,0.000777562,,,,,,,
"LIN","header_sync",1.470266687,0.000494563,,,,,,,
"LIN","header_pid",1.470787625,0.000494563,0x000000000000003D,,,,,,
"LIN","header_break",1.479411438,0.000777562,,,,,,,
"LIN","header_sync",1.480296937,0.000494563,,,,,,,
"LIN","header_pid",1.480817875,0.000494563,0x000000000000001C,,,,,,
"LIN","data",1.48134875,0.000494563,,0x00000000000000FE,0x0000000000000000,,,,
"LIN","data",1.4818695,0.000494563,,0x00000000000000FC,0x0000000000000001,,,,
"LIN","data",1.482390438,0.000494562,,0x0000000000000001,0x0000000000000002,,,,
"LIN","data",1.482911312,0.000494563,,0x00000000000000F8,0x0000000000000003,,,,
"LIN","data_or_checksum",1.48343225,0.000494563,,0x000000000000006D,0x0000000000000004,,,0x000000000000006D,
"LIN","header_break",1.519591687,0.000777562,,,,,,,
"LIN","header_sync",1.52047725,0.000494563,,,,,,,
"LIN","header_pid",1.520998125,0.000494563,0x000000000000003D,,,,,,
"LIN","header_break",1.529423625,0.0007775,,,,,,,
"LIN","header_sync",1.530309125,0.000494563,,,,,,,
"LIN","header_pid",1.53083,0.000494563,0x000000000000000F,,,,,,
"LIN","header_break",1.569388,0.000777562,,,,,,,
"LIN","header_sync",1.5702735,0.000494563,,,,,,,
"LIN","header_pid",1.570794438,0.000494563,0x000000000000003D,,,,,,
"LIN","header_break",1.579478687,0.000777562,,,,,,,
"LIN","header_sync",1.58036425,0.000494563,,,,,,,
"LIN","header_pid",1.580885125,0.000494562,0x000000000000001C,,,,,,
"LIN","data",1.5814135,0.000494562,,0x00000000000000FE,0x0000000000000000,,,,
"LIN","data",1.5819335,0.000494563,,0x00000000000000FC,0x0000000000000001,,,,
"LIN","data",1.582454438,0.000494562,,0x0000000000000001,0x0000000000000002,,,,
"LIN","data",1.582975312,0.000494563,,0x00000000000000F8,0x0000000000000003,,,,
"LIN","data_or_checksum",1.58349625,0.000494562,,0x000000000000006D,0x0000000000000004,,,0x000000000000006D,
"LIN","header_break",1.619470437,0.0007775,,,,,,,
"LIN","header_sync",1.620355938,0.000494563,,,,,,,
"LIN","header_pid",1.620876812,0.000494563,0x000000000000003D,,,,,,
"LIN","header_break",1.629437375,0.0007775,,,,,,,
"LIN","header_sync",1.630322875,0.000494562,,,,,,,
"LIN","header_pid",1.63084375,0.000494563,0x000000000000000F,,,,,,
"LIN","header_break",1.669395313,0.000777562,,,,,,,
"LIN","header_sync",1.670280812,0.000494563,,,,,,,
"LIN","header_pid",1.67080175,0.000494562,0x000000000000003D,,,,,,
"LIN","header_break",1.679443125,0.0007775,,,,,,,
"LIN","header_sync",1.680328625,0.000494562,,,,,,,
"LIN","header_pid",1.680849562,0.000494563,0x000000000000001C,,,,,,
"LIN","data",1.6813805,0.000494563,,0x00000000000000FE,0x0000000000000000,,,,
"LIN","data",1.681901188,0.000494562,,0x00000000000000FC,0x0000000000000001,,,,
"LIN","data",1.682422063,0.000494563,,0x0000000000000001,0x0000000000000002,,,,
"LIN","data",1.682943,0.000494563,,0x00000000000000F8,0x0000000000000003,,,,
"LIN","data_or_checksum",1.683463938,0.000494563,,0x000000000000006D,0x0000000000000004,,,0x000000000000006D,
"LIN","header_break",1.719543812,0.0007775,,,,,,,
"LIN","header_sync",1.720429313,0.000494562,,,,,,,
"LIN","header_pid",1.720950187,0.000494563,0x000000000000003D,,,,,,
"LIN","header_break",1.729447938,0.000777562,,,,,,,
"LIN","header_sync",1.730333437,0.000494563,,,,,,,
"LIN","header_pid",1.730854375,0.000494562,0x000000000000000F,,,,,,
"LIN","header_break",1.769401938,0.0007775,,,,,,,
"LIN","header_sync",1.770287437,0.000494563,,,,,,,
"LIN","header_pid",1.770808313,0.000494562,0x000000000000003D,,,,,,
"LIN","header_break",1.779447,0.000777563,,,,,,,
"LIN","header_sync",1.780332562,0.000494563,,,,,,,
"LIN","header_pid",1.780853438,0.000494563,0x000000000000001C,,,,,,
"LIN","data",1.781383375,0.000494562,,0x00000000000000FE,0x0000000000000000,,,,
"LIN","data",1.781901812,0.000494563,,0x00000000000000FC,0x0000000000000001,,,,
"LIN","data",1.78242275,0.000494563,,0x0000000000000001,0x0000000000000002,,,,
"LIN","data",1.782943625,0.000494563,,0x00000000000000F8,0x0000000000000003,,,,
