name,type,start_time,duration,"protected_id","data","index","checksum"
"LIN","header_break",0.009903063,0.000806938,,,,
"LIN","header_sync",0.010788625,0.000494563,,,,
"LIN","header_pid",0.011309563,0.000494563,0x000000000000003D,,,
"LIN","header_break",0.019879062,0.000777062,,,,
"LIN","header_sync",0.020764625,0.000494563,,,,
"LIN","header_pid",0.0212855,0.000494563,0x000000000000000F,,,
"LIN","data",0.021945063,0.000494562,,0x0000000000000000,0x0000000000000000,
"LIN","data",0.022520375,0.000494563,,0x00000000000000CC,0x0000000000000001,
"LIN","data",0.023095687,0.000494563,,0x0000000000000007,0x0000000000000002,
"LIN","data",0.023723312,0.000494563,,0x0000000000000000,0x0000000000000003,
"LIN","data",0.024298375,0.000494563,,0x0000000000000084,0x0000000000000004,
"LIN","data",0.024873563,0.000494562,,0x000000000000004B,0x0000000000000005,
"LIN","data",0.025448938,0.000494563,,0x000000000000004C,0x0000000000000006,
"LIN","data",0.026076688,0.000494563,,0x000000000000004C,0x0000000000000007,
"LIN","checksum",0.026652,0.000494563,,,,0x00000000000000F3
"LIN","header_break",0.059827813,0.000806938,,,,
"LIN","header_sync",0.060713312,0.000494563,,,,
"LIN","header_pid",0.06123425,0.000494563,0x000000000000003D,,,
"LIN","header_break",0.069814937,0.000777062,,,,
"LIN","header_sync",0.0707005,0.000494563,,,,
"LIN","header_pid",0.071221375,0.000494562,0x000000000000001C,,,
"LIN","data",0.071751125,0.000494563,,0x00000000000000FE,0x0000000000000000,
"LIN","data",0.07226975,0.000494563,,0x00000000000000FC,0x0000000000000001,
"LIN","data",0.072790688,0.000494562,,0x0000000000000001,0x0000000000000002,
"LIN","data",0.073311625,0.000494562,,0x00000000000000F8,0x0000000000000003,
"LIN","data_or_checksum",0.073832563,0.000494562,,0x000000000000006D,0x0000000000000004,0x000000000000006D
"LIN","header_break",0.109949062,0.000777062,,,,
"LIN","header_sync",0.110834562,0.000494563,,,,
"LIN","header_pid",0.111355438,0.000494563,0x000000000000003D,,,
"LIN","header_break",0.119847375,0.000777062,,,,
"LIN","header_sync",0.120732875,0.000494562,,,,
"LIN","header_pid",0.121253813,0.000494563,0x000000000000000F,,,
"LIN","data",0.12184,0.000494562,,0x0000000000000000,0x0000000000000000,
"LIN","data",0.12241525,0.000494563,,0x00000000000000CC,0x0000000000000001,
"LIN","data",0.122990562,0.000494563,,0x0000000000000007,0x0000000000000002,
"LIN","data",0.123618188,0.000494562,,0x0000000000000000,0x0000000000000003,
"LIN","data",0.124193562,0.000494563,,0x0000000000000084,0x0000000000000004,
"LIN","data",0.124768813,0.000494563,,0x000000000000004B,0x0000000000000005,
"LIN","data",0.1253965,0.000494563,,0x000000000000004C,0x0000000000000006,
"LIN","data",0.125971813,0.000494562,,0x000000000000004C,0x0000000000000007,
"LIN","checksum",0.126547125,0.000494562,,,,0x00000000000000F3
"LIN","header_break",0.159837687,0.000806938,,,,
"LIN","header_sync",0.160723188,0.000494563,,,,
"LIN","header_pid",0.161244125,0.000494563,0x000000000000003D,,,
"LIN","header_break",0.169825937,0.000777062,,,,
"LIN","header_sync",0.1707115,0.000494563,,,,
"LIN","header_pid",0.171232438,0.000494563,0x000000000000001C,,,
"LIN","data",0.171761375,0.000494563,,0x00000000000000FE,0x0000000000000000,
"LIN","data",0.172280812,0.000494563,,0x00000000000000FC,0x0000000000000001,
"LIN","data",0.172801687,0.000494563,,0x0000000000000001,0x0000000000000002,
"LIN","data",0.173322625,0.000494562,,0x00000000000000F8,0x0000000000000003,
"LIN","data_or_checksum",0.173843562,0.000494563,,0x000000000000006D,0x0000000000000004,0x000000000000006D
"LIN","header_break",0.209959062,0.000777062,,,,
"LIN","header_sync",0.210844562,0.000494563,,,,
"LIN","header_pid",0.2113655,0.000494562,0x000000000000003D,,,
"LIN","header_break",0.219882,0.000777062,,,,
"LIN","header_sync",0.220767562,0.000494563,,,,
"LIN","header_pid",0.221288437,0.000494563,0x000000000000000F,,,
"LIN","data",0.221895563,0.000494562,,0x0000000000000000,0x0000000000000000,
"LIN","data",0.222470937,0.000494563,,0x00000000000000CC,0x0000000000000001,
"LIN","data",0.223098688,0.000494562,,0x0000000000000007,0x0000000000000002,
"LIN","data",0.223673938,0.000494563,,0x0000000000000000,0x0000000000000003,
"LIN","data",0.224249438,0.000494563,,0x0000000000000084,0x0000000000000004,
"LIN","data",0.224825063,0.000494563,,0x000000000000004B,0x0000000000000005,
"LIN","data",0.225452812,0.000494563,,0x000000000000004C,0x0000000000000006,
"LIN","data",0.226028375,0.000494562,,0x000000000000004C,0x0000000000000007,
"LIN","checksum",0.22660375,0.000494563,,,,0x00000000000000F3
"LIN","header_break",0.259845437,0.000806938,,,,
"LIN","header_sync",0.260730937,0.000494563,,,,
"LIN","header_pid",0.261251875,0.000494562,0x000000000000003D,,,
"LIN","header_break",0.269891437,0.000777,,,,
"LIN","header_sync",0.270776937,0.000494563,,,,
"LIN","header_pid",0.271297875,0.000494562,0x000000000000001C,,,
"LIN","data",0.271827,0.000494563,,0x00000000000000FE,0x0000000000000000,
"LIN","data",0.27234625,0.000494562,,0x00000000000000FC,0x0000000000000001,
"LIN","data",0.272867187,0.000494563,,0x0000000000000001,0x0000000000000002,
"LIN","data",0.273388062,0.000494563,,0x00000000000000F8,0x0000000000000003,
"LIN","data_or_checksum",0.273909,0.000494562,,0x000000000000006D,0x0000000000000004,0x000000000000006D
"LIN","header_break",0.309967938,0.000777062,,,,
"LIN","header_sync",0.3108535,0.000494563,,,,
"LIN","header_pid",0.311374375,0.000494563,0x000000000000003D,,,
"LIN","header_break",0.319874563,0.000777062,,,,
"LIN","header_sync",0.320760125,0.000494563,,,,
"LIN","header_pid",0.321281,0.000494562,0x000000000000000F,,,
"LIN","data",0.321911312,0.000494562,,0x0000000000000000,0x0000000000000000,
"LIN","data",0.322486875,0.000494563,,0x00000000000000CC,0x0000000000000001,
"LIN","data",0.323114625,0.000494563,,0x0000000000000007,0x0000000000000002,
"LIN","data",0.32369,0.000494562,,0x0000000000000000,0x0000000000000003,
"LIN","data",0.324265375,0.000494562,,0x0000000000000084,0x0000000000000004,
"LIN","data",0.324840813,0.000494562,,0x000000000000004B,0x0000000000000005,
"LIN","data",0.3254685,0.000494563,,0x000000000000004C,0x0000000000000006,
"LIN","data",0.326043875,0.000494563,,0x000000000000004C,0x0000000000000007,
"LIN","checksum",0.326619125,0.000494563,,,,0x00000000000000F3
"LIN","header_break",0.359854813,0.000806937,,,,
"LIN","header_sync",0.360740375,0.000494562,,,,
"LIN","header_pid",0.36126125,0.000494563,0x000000000000003D,,,
"LIN","header_break",0.369919312,0.000777063,,,,
"LIN","header_sync",0.370804813,0.000494562,,,,
"LIN","header_pid",0.371325688,0.000494563,0x000000000000001C,,,
"LIN","data",0.371856813,0.000494562,,0x00000000000000FE,0x0000000000000000,
"LIN","data",0.372377375,0.000494562,,0x00000000000000FC,0x0000000000000001,
"LIN","data",0.372898312,0.000494563,,0x0000000000000001,0x0000000000000002,
"LIN","data",0.373419188,0.000494562,,0x00000000000000F8,0x0000000000000003,
"LIN","data_or_checksum",0.373940125,0.000494562,,0x000000000000006D,0x0000000000000004,0x000000000000006D
"LIN","header_break",0.409937063,0.000777062,,,,
"LIN","header_sync",0.410822562,0.000494563,,,,
"LIN","header_pid",0.4113435,0.000494563,0x000000000000003D,,,
"LIN","header_break",0.419911,0.000777125,,,,
"LIN","header_sync",0.420796563,0.000494562,,,,
"LIN","header_pid",0.421317438,0.000494563,0x000000000000000F,,,
"LIN","data",0.421929438,0.000494563,,0x0000000000000000,0x0000000000000000,
"LIN","data",0.422557125,0.000494563,,0x00000000000000CC,0x0000000000000001,
"LIN","data",0.423132687,0.000494563,,0x0000000000000007,0x0000000000000002,
"LIN","data",0.423707938,0.000494562,,0x0000000000000000,0x0000000000000003,
"LIN","data",0.42428325,0.000494563,,0x0000000000000084,0x0000000000000004,
"LIN","data",0.424911,0.000494562,,0x000000000000004B,0x0000000000000005,
"LIN","data",0.4254865,0.000494563,,0x000000000000004C,0x0000000000000006,
"LIN","data",0.426061937,0.000494563,,0x000000000000004C,0x0000000000000007,
"LIN","checksum",0.426689563,0.000494563,,,,0x00000000000000F3
"LIN","header_break",0.459863875,0.000806938,,,,
"LIN","header_sync",0.460749438,0.000494562,,,,
"LIN","header_pid",0.461270313,0.000494563,0x000000000000003D,,,
"LIN","header_break",0.469849187,0.000777063,,,,
"LIN","header_sync",0.470734688,0.000494562,,,,
"LIN","header_pid",0.471255625,0.000494562,0x000000000000001C,,,
"LIN","data",0.471785687,0.000494563,,0x00000000000000FE,0x0000000000000000,
"LIN","data",0.472304,0.000494563,,0x00000000000000FC,0x0000000000000001,
"LIN","data",0.472824937,0.000494563,,0x0000000000000001,0x0000000000000002,
"LIN","data",0.473345813,0.000494562,,0x00000000000000F8,0x0000000000000003,
"LIN","data_or_checksum",0.47386675,0.000494562,,0x000000000000006D,0x0000000000000004,0x000000000000006D
"LIN","header_break",0.509984437,0.000777062,,,,
"LIN","header_sync",0.51087,0.000494562,,,,
"LIN","header_pid",0.511390937,0.000494563,0x000000000000003D,,,
"LIN","header_break",0.5199365,0.000777125,,,,
"LIN","header_sync",0.520822062,0.000494562,,,,
"LIN","header_pid",0.521342938,0.000494562,0x000000000000000F,,,
"LIN","data",0.522004438,0.000494563,,0x0000000000000000,0x0000000000000000,
"LIN","data",0.522579875,0.000494563,,0x00000000000000CC,0x0000000000000001,
"LIN","data",0.52315525,0.000494563,,0x0000000000000007,0x0000000000000002,
"LIN","data",0.523783,0.000494563,,0x0000000000000000,0x0000000000000003,
"LIN","data",0.524358312,0.000494563,,0x0000000000000084,0x0000000000000004,
"LIN","data",0.524933813,0.000494562,,0x000000000000004B,0x0000000000000005,
"LIN","data",0.525509312,0.000494563,,0x000000000000004C,0x0000000000000006,
"LIN","data",0.526137063,0.000494563,,0x000000000000004C,0x0000000000000007,
"LIN","checksum",0.5267125,0.000494563,,,,0x00000000000000F3
"LIN","header_break",0.559872313,0.000806937,,,,
"LIN","header_sync",0.560757813,0.000494563,,,,
"LIN","header_pid",0.561278687,0.000494563,0x000000000000003D,,,
"LIN","header_break",0.569859375,0.000777,,,,
"LIN","header_sync",0.570744875,0.000494562,,,,
"LIN","header_pid",0.571265812,0.000494563,0x000000000000001C,,,
"LIN","data",0.571795938,0.000494563,,0x00000000000000FE,0x0000000000000000,
"LIN","data",0.572314187,0.000494563,,0x00000000000000FC,0x0000000000000001,
"LIN","data",0.572835125,0.000494563,,0x0000000000000001,0x0000000000000002,
"LIN","data",0.573356,0.000494563,,0x00000000000000F8,0x0000000000000003,
"LIN","data_or_checksum",0.573876938,0.000494563,,0x000000000000006D,0x0000000000000004,0x000000000000006D
"LIN","header_break",0.60995425,0.000777063,,,,
"LIN","header_sync",0.610839812,0.000494563,,,,
"LIN","header_pid",0.611360688,0.000494562,0x000000000000003D,,,
"LIN","header_break",0.619930813,0.000777063,,,,
"LIN","header_sync",0.620816375,0.000494563,,,,
"LIN","header_pid",0.62133725,0.000494563,0x000000000000000F,,,
"LIN","data",0.622026437,0.000494563,,0x0000000000000000,0x0000000000000000,
"LIN","data",0.622654188,0.000494563,,0x00000000000000CC,0x0000000000000001,
"LIN","data",0.623229625,0.000494562,,0x0000000000000007,0x0000000000000002,
"LIN","data",0.623805125,0.000494563,,0x0000000000000000,0x0000000000000003,
"LIN","data",0.624432875,0.000494563,,0x0000000000000085,0x0000000000000004,
"LIN","data",0.625008312,0.000494563,,0x000000000000004B,0x0000000000000005,
"LIN","data",0.625583812,0.000494563,,0x000000000000004C,0x0000000000000006,
"LIN","data",0.626159313,0.000494562,,0x000000000000004C,0x0000000000000007,
"LIN","checksum",0.626787125,0.000494563,,,,0x00000000000000F2
"LIN","header_break",0.659879937,0.000806938,,,,
"LIN","header_sync",0.660765438,0.000494562,,,,
"LIN","header_pid",0.661286375,0.000494563,0x000000000000003D,,,
"LIN","header_break",0.669865938,0.000777063,,,,
"LIN","header_sync",0.6707515,0.000494563,,,,
"LIN","header_pid",0.671272375,0.000494563,0x000000000000001C,,,
"LIN","data",0.671802875,0.000494563,,0x00000000000000FE,0x0000000000000000,
"LIN","data",0.672320812,0.000494563,,0x00000000000000FC,0x0000000000000001,
"LIN","data",0.672841687,0.000494563,,0x0000000000000001,0x0000000000000002,
"LIN","data",0.673362563,0.000494562,,0x00000000000000F8,0x0000000000000003,
"LIN","data_or_checksum",0.673883563,0.000494563,,0x000000000000006D,0x0000000000000004,0x000000000000006D
"LIN","header_break",0.710084,0.000777,,,,
"LIN","header_sync",0.7109695,0.000494563,,,,
"LIN","header_pid",0.711490375,0.000494563,0x000000000000003D,,,
"LIN","header_break",0.719981375,0.000777125,,,,
"LIN","header_sync",0.720866937,0.000494563,,,,
"LIN","header_pid",0.721387875,0.000494563,0x000000000000000F,,,
"LIN","data",0.721998125,0.000494562,,0x0000000000000000,0x0000000000000000,
"LIN","data",0.722625938,0.000494563,,0x00000000000000CC,0x0000000000000001,
"LIN","data",0.723201375,0.000494563,,0x0000000000000007,0x0000000000000002,
"LIN","data",0.72377675,0.000494563,,0x0000000000000000,0x0000000000000003,
"LIN","data",0.724352187,0.000494562,,0x0000000000000085,0x0000000000000004,
"LIN","data",0.724979938,0.000494563,,0x000000000000004B,0x0000000000000005,
"LIN","data",0.7255555,0.000494563,,0x000000000000004C,0x0000000000000006,
"LIN","data",0.726131,0.000494563,,0x000000000000004C,0x0000000000000007,
"LIN","checksum",0.726758812,0.000494563,,,,0x00000000000000F2
"LIN","header_break",0.759888875,0.000806938,,,,
"LIN","header_sync",0.760774375,0.000494563,,,,
"LIN","header_pid",0.761295313,0.000494562,0x000000000000003D,,,
"LIN","header_break",0.769879,0.000777062,,,,
"LIN","header_sync",0.7707645,0.000494563,,,,
"LIN","header_pid",0.771285438,0.000494562,0x000000000000001C,,,
"LIN","data",0.771816375,0.000494563,,0x00000000000000FE,0x0000000000000000,
"LIN","data",0.772337063,0.000494563,,0x00000000000000FC,0x0000000000000001,
"LIN","data",0.772858,0.000494562,,0x0000000000000001,0x0000000000000002,
"LIN","data",0.773378875,0.000494563,,0x00000000000000F8,0x0000000000000003,
"LIN","data_or_checksum",0.773899812,0.000494563,,0x000000000000006D,0x0000000000000004,0x000000000000006D
"LIN","header_break",0.80997225,0.000777063,,,,
"LIN","header_sync",0.81085775,0.000494562,,,,
"LIN","header_pid",0.811378687,0.000494563,0x000000000000003D,,,
"LIN","header_break",0.81999875,0.000777125,,,,
"LIN","header_sync",0.82088425,0.000494563,,,,
"LIN","header_pid",0.821405188,0.000494563,0x000000000000000F,,,
"LIN","data",0.822011313,0.000494563,,0x0000000000000000,0x0000000000000000,
"LIN","data",0.82269125,0.000494563,,0x00000000000000CC,0x0000000000000001,
"LIN","data",0.823266625,0.000494563,,0x0000000000000007,0x0000000000000002,
"LIN","data",0.82389425,0.000494562,,0x0000000000000000,0x0000000000000003,
"LIN","data",0.824469563,0.000494563,,0x0000000000000085,0x0000000000000004,
"LIN","data",0.825044812,0.000494563,,0x000000000000004B,0x0000000000000005,
"LIN","data",0.825620187,0.000494562,,0x000000000000004C,0x0000000000000006,
"LIN","data",0.826195625,0.000494563,,0x000000000000004C,0x0000000000000007,
"LIN","checksum",0.826823312,0.000494563,,,,0x00000000000000F2
"LIN","header_break",0.859897937,0.000806938,,,,
"LIN","header_sync",0.8607835,0.000494563,,,,
"LIN","header_pid",0.861304375,0.000494563,0x000000000000003D,,,
"LIN","header_break",0.869962187,0.000777,,,,
"LIN","header_sync",0.87084775,0.000494563,,,,
"LIN","header_pid",0.871368625,0.000494563,0x000000000000001C,,,
"LIN","data",0.87189825,0.000494563,,0x00000000000000FE,0x0000000000000000,
"LIN","data",0.872417,0.000494563,,0x00000000000000FC,0x0000000000000001,
"LIN","data",0.872937938,0.000494562,,0x0000000000000001,0x0000000000000002,
"LIN","data",0.873458813,0.000494563,,0x00000000000000F8,0x0000000000000003,
"LIN","data_or_checksum",0.87397975,0.000494562,,0x000000000000006D,0x0000000000000004,0x000000000000006D
"LIN","header_break",0.910049875,0.000777062,,,,
"LIN","header_sync",0.910935375,0.000494563,,,,
"LIN","header_pid",0.911456313,0.000494562,0x000000000000003D,,,
"LIN","header_break",0.91997275,0.000777062,,,,
"LIN","header_sync",0.92085825,0.000494563,,,,
"LIN","header_pid",0.921379188,0.000494563,0x000000000000000F,,,
"LIN","data",0.922018,0.000494563,,0x0000000000000000,0x0000000000000000,
"LIN","data",0.92259325,0.000494563,,0x00000000000000CC,0x0000000000000001,
"LIN","data",0.923273125,0.000494563,,0x0000000000000007,0x0000000000000002,
"LIN","data",0.9238485,0.000494563,,0x0000000000000000,0x0000000000000003,
"LIN","data",0.924476125,0.000494563,,0x0000000000000085,0x0000000000000004,
"LIN","data",0.925051312,0.000494562,,0x000000000000004B,0x0000000000000005,
"LIN","data",0.925626562,0.000494563,,0x000000000000004C,0x0000000000000006,
"LIN","data",0.926202,0.000494563,,0x000000000000004C,0x0000000000000007,
"LIN","checksum",0.926829563,0.000494563,,,,0x00000000000000F2
"LIN","header_break",0.959906812,0.000806938,,,,
"LIN","header_sync",0.960792312,0.000494563,,,,
"LIN","header_pid",0.96131325,0.000494563,0x000000000000003D,,,
"LIN","header_break",0.96991825,0.000777125,,,,
"LIN","header_sync",0.970803813,0.000494563,,,,
"LIN","header_pid",0.971324688,0.000494563,0x000000000000001C,,,
"LIN","data",0.971853188,0.000494562,,0x00000000000000FE,0x0000000000000000,
"LIN","data",0.972373125,0.000494563,,0x00000000000000FC,0x0000000000000001,
"LIN","data",0.972894,0.000494563,,0x0000000000000001,0x0000000000000002,
"LIN","data",0.973414875,0.000494563,,0x00000000000000F8,0x0000000000000003,
"LIN","data_or_checksum",0.973935875,0.000494563,,0x000000000000006D,0x0000000000000004,0x000000000000006D
"LIN","header_break",1.0099895,0.000777,,,,
"LIN","header_sync",1.010875,0.000494563,,,,
"LIN","header_pid",1.011395937,0.000494563,0x000000000000003D,,,
"LIN","header_break",1.019951312,0.000777,,,,
"LIN","header_sync",1.020836813,0.000494562,,,,
"LIN","header_pid",1.02135775,0.000494563,0x000000000000000F,,,
"LIN","data",1.022023062,0.000494563,,0x0000000000000000,0x0000000000000000,
"LIN","data",1.022650625,0.000494562,,0x00000000000000CC,0x0000000000000001,
"LIN","data",1.023225875,0.000494562,,0x0000000000000007,0x0000000000000002,
"LIN","data",1.023853437,0.000494563,,0x0000000000000000,0x0000000000000003,
"LIN","data",1.024428625,0.000494563,,0x0000000000000085,0x0000000000000004,
"LIN","data",1.025003937,0.000494563,,0x000000000000004B,0x0000000000000005,
"LIN","data",1.025579375,0.000494563,,0x000000000000004C,0x0000000000000006,
"LIN","data",1.026154812,0.000494563,,0x000000000000004C,0x0000000000000007,
"LIN","checksum",1.026782562,0.000494562,,,,0x00000000000000F2
"LIN","header_break",1.059914562,0.000806938,,,,
"LIN","header_sync",1.060800063,0.000494563,,,,
"LIN","header_pid",1.061321,0.000494563,0x000000000000003D,,,
"LIN","header_break",1.069901313,0.000777062,,,,
"LIN","header_sync",1.070786875,0.000494563,,,,
"LIN","header_pid",1.071307812,0.000494563,0x000000000000001C,,,
"LIN","data",1.071837375,0.000494563,,0x00000000000000FE,0x0000000000000000,
"LIN","data",1.072356125,0.000494562,,0x00000000000000FC,0x0000000000000001,
"LIN","data",1.072877062,0.000494563,,0x0000000000000001,0x0000000000000002,
"LIN","data",1.073398,0.000494562,,0x00000000000000F8,0x0000000000000003,
"LIN","data_or_checksum",1.073918938,0.000494562,,0x000000000000006D,0x0000000000000004,0x000000000000006D
"LIN","header_break",1.110036063,0.000777,,,,
"LIN","header_sync",1.110921562,0.000494563,,,,
"LIN","header_pid",1.1114425,0.000494562,0x000000000000003D,,,
"LIN","header_break",1.1199255,0.000777,,,,
"LIN","header_sync",1.120811,0.000494563,,,,
"LIN","header_pid",1.121331875,0.000494562,0x000000000000000F,,,
"LIN","data",1.121980375,0.000494563,,0x0000000000000000,0x0000000000000000,
"LIN","data",1.122608,0.000494563,,0x00000000000000CC,0x0000000000000001,
"LIN","data",1.123183375,0.000494562,,0x0000000000000007,0x0000000000000002,
"LIN","data",1.123758688,0.000494562,,0x0000000000000000,0x0000000000000003,
"LIN","data",1.124334187,0.000494563,,0x0000000000000085,0x0000000000000004,
"LIN","data",1.12496175,0.000494563,,0x000000000000004B,0x0000000000000005,
"LIN","data",1.125537125,0.000494563,,0x000000000000004C,0x0000000000000006,
"LIN","data",1.126112375,0.000494563,,0x000000000000004C,0x0000000000000007,
