"Time Stamp",ID,Extended,Dir,Bus,LEN,D1,D2,D3,D4,D5,D6,D7,D8
20751,0000003D,false,Rx,0,0,00,00,00,00,00,00,00,00
30673,0000000F,false,Rx,0,0,00,00,00,00,00,00,00,00
70676,0000003D,false,Rx,0,0,00,00,00,00,00,00,00,00
80771,0000001C,false,Rx,0,4,FE,FC,01,F8,00,00,00,00
120799,0000003D,false,Rx,0,0,00,00,00,00,00,00,00,00
130709,0000000F,false,Rx,0,0,00,00,00,00,00,00,00,00
170685,0000003D,false,Rx,0,0,00,00,00,00,00,00,00,00
180734,0000001C,false,Rx,0,4,FE,FC,01,F8,00,00,00,00
220767,0000003D,false,Rx,0,0,00,00,00,00,00,00,00,00
230690,0000000F,false,Rx,0,0,00,00,00,00,00,00,00,00
270692,0000003D,false,Rx,0,0,00,00,00,00,00,00,00,00
280677,0000001C,false,Rx,0,4,FE,FC,01,F8,00,00,00,00
320816,0000003D,false,Rx,0,0,00,00,00,00,00,00,00,00
330746,0000000F,false,Rx,0,0,00,00,00,00,00,00,00,00
370700,0000003D,false,Rx,0,0,00,00,00,00,00,00,00,00
380687,0000001C,false,Rx,0,4,FE,FC,01,F8,00,00,00,00
420821,0000003D,false,Rx,0,0,00,00,00,00,00,00,00,00
430762,0000000F,false,Rx,0,0,00,00,00,00,00,00,00,00
470708,0000003D,false,Rx,0,0,00,00,00,00,00,00,00,00
480741,0000001C,false,Rx,0,4,FE,FC,01,F8,00,00,00,00
520827,0000003D,false,Rx,0,0,00,00,00,00,00,00,00,00
530759,0000000F,false,Rx,0,0,00,00,00,00,00,00,00,00
570715,0000003D,false,Rx,0,0,00,00,00,00,00,00,00,00
580804,0000001C,false,Rx,0,4,FE,FC,01,F8,00,00,00,00
620799,0000003D,false,Rx,0,0,00,00,00,00,00,00,00,00
630770,0000000F,false,Rx,0,0,00,00,00,00,00,00,00,00
670724,0000003D,false,Rx,0,0,00,00,00,00,00,00,00,00
680770,0000001C,false,Rx,0,4,FE,FC,01,F8,00,00,00,00
720841,0000003D,false,Rx,0,0,00,00,00,00,00,00,00,00
730764,0000000F,false,Rx,0,0,00,00,00,00,00,00,00,00
770729,0000003D,false,Rx,0,0,00,00,00,00,00,00,00,00
780779,0000001C,false,Rx,0,4,FE,FC,01,F8,00,00,00,00
820817,0000003D,false,Rx,0,0,00,00,00,00,00,00,00,00
830775,0000000F,false,Rx,0,0,00,00,00,00,00,00,00,00
870736,0000003D,false,Rx,0,0,00,00,00,00,00,00,00,00
880770,0000001C,false,Rx,0,4,FE,FC,01,F8,00,00,00,00
920972,0000003D,false,Rx,0,0,00,00,00,00,00,00,00,00
930744,0000000F,false,Rx,0,0,00,00,00,00,00,00,00,00
970746,0000003D,false,Rx,0,0,00,00,00,00,00,00,00,00
980790,0000001C,false,Rx,0,4,FE,FC,01,F8,00,00,00,00
1020829,0000003D,false,Rx,0,0,00,00,00,00,00,00,00,00
1030790,0000000F,false,Rx,0,0,00,00,00,00,00,00,00,00
1070755,0000003D,false,Rx,0,0,00,00,00,00,00,00,00,00
1080790,0000001C,false,Rx,0,4,FE,FC,01,F8,00,00,00,00
1120873,0000003D,false,Rx,0,0,00,00,00,00,00,00,00,00
1130809,0000000F,false,Rx,0,0,00,00,00,00,00,00,00,00
1170766,0000003D,false,Rx,0,0,00,00,00,00,00,00,00,00
1180788,0000001C,false,Rx,0,4,FE,FC,01,F8,00,00,00,00
1220846,0000003D,false,Rx,0,0,00,00,00,00,00,00,00,00
1230817,0000000F,false,Rx,0,0,00,00,00,00,00,00,00,00
1270770,0000003D,false,Rx,0,0,00,00,00,00,00,00,00,00
1280756,0000001C,false,Rx,0,4,FE,FC,01,F8,00,00,00,00
1320894,0000003D,false,Rx,0,0,00,00,00,00,00,00,00,00
1330812,0000000F,false,Rx,0,0,00,00,00,00,00,00,00,00
1370778,0000003D,false,Rx,0,0,00,00,00,00,00,00,00,00
1380825,0000001C,false,Rx,0,4,FE,FC,01,F8,00,00,00,00
1420900,0000003D,false,Rx,0,0,00,00,00,00,00,00,00,00
1430784,0000000F,false,Rx,0,0,00,00,00,00,00,00,00,00
1470787,0000003D,false,Rx,0,0,00,00,00,00,00,00,00,00
1480817,0000001C,false,Rx,0,4,FE,FC,01,F8,00,00,00,00
1520998,0000003D,false,Rx,0,0,00,00,00,00,00,00,00,00
1530830,0000000F,false,Rx,0,0,00,00,00,00,00,00,00,00
1570794,0000003D,false,Rx,0,0,00,00,00,00,00,00,00,00
1580885,0000001C,false,Rx,0,4,FE,FC,01,F8,00,00,00,00
1620876,0000003D,false,Rx,0,0,00,00,00,00,00,00,00,00
1630843,0000000F,false,Rx,0,0,00,00,00,00,00,00,00,00
1670801,0000003D,false,Rx,0,0,00,00,00,00,00,00,00,00
1680849,0000001C,false,Rx,0,4,FE,FC,01,F8,00,00,00,00
1720950,0000003D,false,Rx,0,0,00,00,00,00,00,00,00,00
1730854,0000000F,false,Rx,0,0,00,00,00,00,00,00,00,00
1770808,0000003D,false,Rx,0,0,00,00,00,00,00,00,00,00
1780853,0000001C,false,Rx,0,4,FE,FC,01,F8,00,00,00,00
1820893,0000003D,false,Rx,0,0,00,00,00,00,00,00,00,00
1830866,0000000F,false,Rx,0,0,00,00,00,00,00,00,00,00
1870815,0000003D,false,Rx,0,0,00,00,00,00,00,00,00,00
1880852,0000001C,false,Rx,0,4,FE,FC,01,F8,00,00,00,00
1921069,0000003D,false,Rx,0,0,00,00,00,00,00,00,00,00
1930859,0000000F,false,Rx,0,0,00,00,00,00,00,00,00,00
1970825,0000003D,false,Rx,0,0,00,00,00,00,00,00,00,00
1980811,0000001C,false,Rx,0,4,FE,FC,01,F8,00,00,00,00
2020935,0000003D,false,Rx,0,0,00,00,00,00,00,00,00,00
2030875,0000000F,false,Rx,0,0,00,00,00,00,00,00,00,00
2070832,0000003D,false,Rx,0,0,00,00,00,00,00,00,00,00
2080916,0000001C,false,Rx,0,4,FE,FC,01,F8,00,00,00,00
2120987,0000003D,false,Rx,0,0,00,00,00,00,00,00,00,00
2130839,0000000F,false,Rx,0,0,00,00,00,00,00,00,00,00
2170842,0000003D,false,Rx,0,0,00,00,00,00,00,00,00,00
2180889,0000001C,false,Rx,0,4,FE,FC,01,F8,00,00,00,00
2220952,0000003D,false,Rx,0,0,00,00,00,00,00,00,00,00
2230876,0000000F,false,Rx,0,0,00,00,00,00,00,00,00,00
2270846,0000003D,false,Rx,0,0,00,00,00,00,00,00,00,00
2280897,0000001C,false,Rx,0,4,FE,FC,01,F8,00,00,00,00
2321000,0000003D,false,Rx,0,0,00,00,00,00,00,00,00,00
2330852,0000000F,false,Rx,0,0,00,00,00,00,00,00,00,00
2370857,0000003D,false,Rx,0,0,00,00,00,00,00,00,00,00
2380892,0000001C,false,Rx,0,4,FE,FC,01,F8,00,00,00,00
2421008,0000003D,false,Rx,0,0,00,00,00,00,00,00,00,00
2430910,0000000F,false,Rx,0,0,00,00,00,00,00,00,00,00
2470864,0000003D,false,Rx,0,0,00,00,00,00,00,00,00,00
2480850,0000001C,false,Rx,0,4,FE,FC,01,F8,00,00,00,00
2521077,0000003D,false,Rx,0,0,00,00,00,00,00,00,00,00
2530908,0000000F,false,Rx,0,0,00,00,00,00,00,00,00,00
2570872,0000003D,false,Rx,0,0,00,00,00,00,00,00,00,00
2580991,0000001C,false,Rx,0,4,FE,FC,01,F8,00,00,00,00
2620984,0000003D,false,Rx,0,0,00,00,00,00,00,00,00,00
2630956,0000000F,false,Rx,0,0,00,00,00,00,00,00,00,00
2670910,0000003D,false,Rx,0,0,00,00,00,00,00,00,00,00
2680916,0000001C,false,Rx,0,4,FE,FC,01,F8,00,00,00,00
2721080,0000003D,false,Rx,0,0,00,00,00,00,00,00,00,00
2730965,0000000F,false,Rx,0,0,00,00,00,00,00,00,00,00
2770889,0000003D,false,Rx,0,0,00,00,00,00,00,00,00,00
2780965,0000001C,false,Rx,0,4,FE,FC,01,F8,00,00,00,00
2821002,0000003D,false,Rx,0,0,00,00,00,00,00,00,00,00
2830969,0000000F,false,Rx,0,0,00,00,00,00,00,00,00,00
2870894,0000003D,false,Rx,0,0,00,00,00,00,00,00,00,00
2880972,0000001C,false,Rx,0,4,FE,FC,01,F8,00,00,00,00
2921147,0000003D,false,Rx,0,0,00,00,00,00,00,00,00,00
2930938,0000000F,false,Rx,0,0,00,00,00,00,00,00,00,00
2970901,0000003D,false,Rx,0,0,00,00,00,00,00,00,00,00
2980968,0000001C,false,Rx,0,4,FE,FC,01,F8,00,00,00,00
3021014,0000003D,false,Rx,0,0,00,00,00,00,00,00,00,00
3030909,0000000F,false,Rx,0,0,00,00,00,00,00,00,00,00
3070909,0000003D,false,Rx,0,0,00,00,00,00,00,00,00,00
3080973,0000001C,false,Rx,0,4,FE,FC,01,F8,00,00,00,00
3121062,0000003D,false,Rx,0,0,00,00,00,00,00,00,00,00
3130983,0000000F,false,Rx,0,0,00,00,00,00,00,00,00,00
3170949,0000003D,false,Rx,0,0,00,00,00,00,00,00,00,00
3180907,0000001C,false,Rx,0,4,FE,FC,01,F8,00,00,00,00
3221030,0000003D,false,Rx,0,0,00,00,00,00,00,00,00,00
3230924,0000000F,false,Rx,0,0,00,00,00,00,00,00,00,00
3270952,0000003D,false,Rx,0,0,00,00,00,00,00,00,00,00
3280983,0000001C,false,Rx,0,4,FE,FC,01,F8,00,00,00,00
3321076,0000003D,false,Rx,0,0,00,00,00,00,00,00,00,00
3331013,0000000F,false,Rx,0,0,00,00,00,00,00,00,00,00
3370962,0000003D,false,Rx,0,0,00,00,00,00,00,00,00,00
3381005,0000001C,false,Rx,0,4,FE,FC,01,F8,00,00,00,00
3421084,0000003D,false,Rx,0,0,00,00,00,00,00,00,00,00
3431005,0000000F,false,Rx,0,0,00,00,00,00,00,00,00,00
3470969,0000003D,false,Rx,0,0,00,00,00,00,00,00,00,00
3481005,0000001C,false,Rx,0,4,FE,FC,01,F8,00,00,00,00
3521093,0000003D,false,Rx,0,0,00,00,00,00,00,00,00,00
3531026,0000000F,false,Rx,0,0,00,00,00,00,00,00,00,00
3570978,0000003D,false,Rx,0,0,00,00,00,00,00,00,00,00
3581088,0000001C,false,Rx,0,4,FE,FC,01,F8,00,00,00,00
3621062,0000003D,false,Rx,0,0,00,00,00,00,00,00,00,00
3631018,0000000F,false,Rx,0,0,00,00,00,00,00,00,00,00
3670986,0000003D,false,Rx,0,0,00,00,00,00,00,00,00,00
3681021,0000001C,false,Rx,0,4,FE,FC,01,F8,00,00,00,00
3721168,0000003D,false,Rx,0,0,00,00,00,00,00,00,00,00
3731024,0000000F,false,Rx,0,0,00,00,00,00,00,00,00,00
3770996,0000003D,false,Rx,0,0,00,00,00,00,00,00,00,00
3781033,0000001C,false,Rx,0,4,FE,FC,01,F8,00,00,00,00
3821078,0000003D,false,Rx,0,0,00,00,00,00,00,00,00,00
3831071,0000000F,false,Rx,0,0,00,00,00,00,00,00,00,00
3871003,0000003D,false,Rx,0,0,00,00,00,00,00,00,00,00
3881035,0000001C,false,Rx,0,4,FE,FC,01,F8,00,00,00,00
3921223,0000003D,false,Rx,0,0,00,00,00,00,00,00,00,00
3931084,0000000F,false,Rx,0,0,00,00,00,00,00,00,00,00
3971007,0000003D,false,Rx,0,0,00,00,00,00,00,00,00,00
3981039,0000001C,false,Rx,0,4,FE,FC,01,F8,00,00,00,00
4021094,0000003D,false,Rx,0,0,00,00,00,00,00,00,00,00
4031075,0000000F,false,Rx,0,0,00,00,00,00,00,00,00,00
4071019,0000003D,false,Rx,0,0,00,00,00,00,00,00,00,00
4081081,0000001C,false,Rx,0,4,FE,FC,01,F8,00,00,00,00
4121203,0000003D,false,Rx,0,0,00,00,00,00,00,00,00,00
4131093,0000000F,false,Rx,0,0,00,00,00,00,00,00,00,00
4171027,0000003D,false,Rx,0,0,00,00,00,00,00,00,00,00
4181079,0000001C,false,Rx,0,4,FE,FC,01,F8,00,00,00,00
4221110,0000003D,false,Rx,0,0,00,00,00,00,00,00,00,00
4231106,0000000F,false,Rx,0,0,00,00,00,00,00,00,00,00
4271034,0000003D,false,Rx,0,0,00,00,00,00,00,00,00,00
4281098,0000001C,false,Rx,0,4,FE,FC,01,F8,00,00,00,00
4321209,0000003D,false,Rx,0,0,00,00,00,00,00,00,00,00
4331093,0000000F,false,Rx,0,0,00,00,00,00,00,00,00,00
4371043,0000003D,false,Rx,0,0,00,00,00,00,00,00,00,00
4381028,0000001C,false,Rx,0,4,FE,FC,01,F8,00,00,00,00
4421166,0000003D,false,Rx,0,0,00,00,00,00,00,00,00,00
4431148,0000000F,false,Rx,0,0,00,00,00,00,00,00,00,00
4471050,0000003D,false,Rx,0,0,00,00,00,00,00,00,00,00
4481105,0000001C,false,Rx,0,4,FE,FC,01,F8,00,00,00,00
4521230,0000003D,false,Rx,0,0,00,00,00,00,00,00,00,00
4531126,0000000F,false,Rx,0,0,00,00,00,00,00,00,00,00
4571059,0000003D,false,Rx,0,0,00,00,00,00,00,00,00,00
4581203,0000001C,false,Rx,0,4,FE,FC,01,F8,00,00,00,00
4621146,0000003D,false,Rx,0,0,00,00,00,00,00,00,00,00
4631128,0000000F,false,Rx,0,0,00,00,00,00,00,00,00,00
4671068,0000003D,false,Rx,0,0,00,00,00,00,00,00,00,00
4681119,0000001C,false,Rx,0,4,FE,FC,01,F8,00,00,00,00
4721187,0000003D,false,Rx,0,0,00,00,00,00,00,00,00,00
4731141,0000000F,false,Rx,0,0,00,00,00,00,00,00,00,00
4771074,0000003D,false,Rx,0,0,00,00,00,00,00,00,00,00
4781135,0000001C,false,Rx,0,4,FE,FC,01,F8,00,00,00,00
4821159,0000003D,false,Rx,0,0,00,00,00,00,00,00,00,00
4831177,0000000F,false,Rx,0,0,00,00,00,00,00,00,00,00
4871082,0000003D,false,Rx,0,0,00,00,00,00,00,00,00,00
4881146,0000001C,false,Rx,0,4,FE,FC,01,F8,00,00,00,00
4921302,0000003D,false,Rx,0,0,00,00,00,00,00,00,00,00
4931151,0000000F,false,Rx,0,0,00,00,00,00,00,00,00,00
4971087,0000003D,false,Rx,0,0,00,00,00,00,00,00,00,00
4981180,0000001C,false,Rx,0,4,FE,FC,01,F8,00,00,00,00
5021173,0000003D,false,Rx,0,0,00,00,00,00,00,00,00,00
5031184,0000000F,false,Rx,0,0,00,00,00,00,00,00,00,00
5071096,0000003D,false,Rx,0,0,00,00,00,00,00,00,00,00
5081229,0000001C,false,Rx,0,4,FE,FC,01,F8,00,00,00,00
5121280,0000003D,false,Rx,0,0,00,00,00,00,00,00,00,00
5131205,0000000F,false,Rx,0,0,00,00,00,00,00,00,00,00
5171103,0000003D,false,Rx,0,0,00,00,00,00,00,00,00,00
5181200,0000001C,false,Rx,0,4,FE,FC,01,F8,00,00,00,00
5221189,0000003D,false,Rx,0,0,00,00,00,00,00,00,00,00
5231198,0000000F,false,Rx,0,0,00,00,00,00,00,00,00,00
5271113,0000003D,false,Rx,0,0,00,00,00,00,00,00,00,00
5281210,0000001C,false,Rx,0,4,FE,FC,01,F8,00,00,00,00
5321235,0000003D,false,Rx,0,0,00,00,00,00,00,00,00,00
5331216,0000000F,false,Rx,0,0,00,00,00,00,00,00,00,00
5371122,0000003D,false,Rx,0,0,00,00,00,00,00,00,00,00
5381199,0000001C,false,Rx,0,4,FE,FC,01,F8,00,00,00,00
5421242,0000003D,false,Rx,0,0,00,00,00,00,00,00,00,00
5431224,0000000F,false,Rx,0,0,00,00,00,00,00,00,00,00
5471129,0000003D,false,Rx,0,0,00,00,00,00,00,00,00,00
5481229,0000001C,false,Rx,0,4,FE,FC,01,F8,00,00,00,00
5521303,0000003D,false,Rx,0,0,00,00,00,00,00,00,00,00
5531215,0000000F,false,Rx,0,0,00,00,00,00,00,00,00,00
5571138,0000003D,false,Rx,0,0,00,00,00,00,00,00,00,00
5581252,0000001C,false,Rx,0,4,FE,FC,01,F8,00,00,00,00
5621221,0000003D,false,Rx,0,0,00,00,00,00,00,00,00,00
5631234,0000000F,false,Rx,0,0,00,00,00,00,00,00,00,00
5671147,0000003D,false,Rx,0,0,00,00,00,00,00,00,00,00
5681224,0000001C,false,Rx,0,4,FE,FC,01,F8,00,00,00,00
5721319,0000003D,false,Rx,0,0,00,00,00,00,00,00,00,00
5731229,0000000F,false,Rx,0,0,00,00,00,00,00,00,00,00
5771153,0000003D,false,Rx,0,0,00,00,00,00,00,00,00,00
5781234,0000001C,false,Rx,0,4,FE,FC,01,F8,00,00,00,00
5821238,0000003D,false,Rx,0,0,00,00,00,00,00,00,00,00
5831254,0000000F,false,Rx,0,0,00,00,00,00,00,00,00,00
5871160,0000003D,false,Rx,0,0,00,00,00,00,00,00,00,00
5881229,0000001C,false,Rx,0,4,FE,FC,01,F8,00,00,00,00
5921369,0000003D,false,Rx,0,0,00,00,00,00,00,00,00,00
5931294,0000000F,false,Rx,0,8,00,FD,0F,00,08,32,4C,4B
5971168,0000003D,false,Rx,0,0,00,00,00,00,00,00,00,00
5981254,0000001C,false,Rx,0,4,FE,FC,01,F8,00,00,00,00
6011172,0000003C,false,Rx,0,8,48,03,22,F1,87,FF,FF,FF
6021251,0000003D,false,Rx,0,8,48,10,0E,62,F1,87,31,45
6031231,0000000F,false,Rx,0,7,00,00,0F,00,48,4B,4C,00
6071175,0000003D,false,Rx,0,8,48,21,41,39,36,33,32,33
6081313,0000001C,false,Rx,0,4,FE,FC,01,F8,00,00,00,00
6121299,0000003D,false,Rx,0,8,48,22,31,20,20,FF,FF,FF
6131251,0000000F,false,Rx,0,8,00,00,0F,00,33,48,4B,4C
6171187,0000003D,false,Rx,0,0,00,00,00,00,00,00,00,00
6181287,0000001C,false,Rx,0,4,FE,FC,01,F8,00,00,00,00
6211218,0000003C,false,Rx,0,8,48,03,22,F1,89,FF,FF,FF
6221271,0000003D,false,Rx,0,8,48,10,07,62,F1,89,30,35
6231244,0000000F,false,Rx,0,8,00,00,0F,00,43,48,4B,4C
6271192,0000003D,false,Rx,0,8,48,21,30,30,FF,FF,FF,FF
6281262,0000001C,false,Rx,0,4,FE,FC,01,F8,00,00,00,00
6321378,0000003D,false,Rx,0,0,00,00,00,00,00,00,00,00
6331303,0000000F,false,Rx,0,8,00,00,0F,00,4F,48,4B,4C
6361210,0000003C,false,Rx,0,8,48,03,22,F1,A3,FF,FF,FF
6371201,0000003D,false,Rx,0,8,48,06,62,F1,A3,48,30,33
6381283,0000001C,false,Rx,0,4,FE,FC,01,F8,00,00,00,00
6421322,0000003D,false,Rx,0,0,00,00,00,00,00,00,00,00
6431261,0000000F,false,Rx,0,8,00,00,07,00,59,48,4B,4C
6461192,0000003C,false,Rx,0,8,48,03,22,F1,91,FF,FF,FF
6471208,0000003D,false,Rx,0,8,48,10,0E,62,F1,91,31,45
6481307,0000001C,false,Rx,0,4,FE,FC,01,F8,00,00,00,00
6521329,0000003D,false,Rx,0,8,48,21,41,39,36,33,32,33
6531326,0000000F,false,Rx,0,8,00,00,07,00,60,48,4B,4C
6571217,0000003D,false,Rx,0,8,48,22,31,20,20,FF,FF,FF
6581355,0000001C,false,Rx,0,4,FE,FC,01,F8,00,00,00,00
6621300,0000003D,false,Rx,0,0,00,00,00,00,00,00,00,00
6631274,0000000F,false,Rx,0,8,00,00,07,00,66,48,4B,4C
6661239,0000003C,false,Rx,0,8,48,03,22,F1,8C,FF,FF,FF
6671227,0000003D,false,Rx,0,8,48,10,17,62,F1,8C,43,44
6681336,0000001C,false,Rx,0,4,FE,FC,01,F8,00,00,00,00
6721440,0000003D,false,Rx,0,8,48,21,32,30,31,39,31,33
6731321,0000000F,false,Rx,0,8,00,00,07,00,6B,48,4B,4C
6771234,0000003D,false,Rx,0,7,48,22,30,31,34,30,32,00
6781325,0000001C,false,Rx,0,4,FE,FC,01,F8,00,00,00,00
6821316,0000003D,false,Rx,0,8,48,23,30,30,30,35,31,39
6831296,0000000F,false,Rx,0,8,00,00,07,00,6E,48,4B,4C
6871239,0000003D,false,Rx,0,0,00,00,00,00,00,00,00,00
6881330,0000001C,false,Rx,0,4,FE,FC,01,F8,00,00,00,00
6911241,0000003C,false,Rx,0,8,48,03,22,F1,7C,FF,FF,FF
6921500,0000003D,false,Rx,0,8,48,10,1A,62,F1,7C,43,41
6931391,0000000F,false,Rx,0,8,00,00,07,00,71,48,4B,4C
6971246,0000003D,false,Rx,0,8,48,21,4D,2D,57,39,45,30
6981350,0000001C,false,Rx,0,4,FE,FC,01,F8,00,00,00,00
7021334,0000003D,false,Rx,0,8,48,22,39,2E,30,37,2E,32
7031311,0000000F,false,Rx,0,8,00,00,07,00,73,48,4B,4C
7071255,0000003D,false,Rx,0,8,48,23,30,43,44,30,30,30
7081405,0000001C,false,Rx,0,4,FE,FC,01,F8,00,00,00,00
7121377,0000003D,false,Rx,0,8,48,24,35,31,39,FF,FF,FF
7131359,0000000F,false,Rx,0,8,00,00,07,00,75,48,4B,4C
7171264,0000003D,false,Rx,0,0,00,00,00,00,00,00,00,00
7181346,0000001C,false,Rx,0,4,FE,FC,01,F8,00,00,00,00
7211268,0000003C,false,Rx,0,8,48,03,22,F1,97,FF,FF,FF
7221348,0000003D,false,Rx,0,8,48,10,10,62,F1,97,4A,38
7231328,0000000F,false,Rx,0,8,00,00,07,00,76,48,4B,4C
7271270,0000003D,false,Rx,0,8,48,21,34,38,20,48,56,2D
7281377,0000001C,false,Rx,0,4,FE,FC,01,F8,00,00,00,00
7321488,0000003D,false,Rx,0,8,48,22,50,54,43,20,20,FF
7331371,0000000F,false,Rx,0,8,00,00,07,00,77,48,4B,4C
7371278,0000003D,false,Rx,0,0,00,00,00,00,00,00,00,00
7381381,0000001C,false,Rx,0,4,FE,FC,01,F8,00,00,00,00
7421402,0000003D,false,Rx,0,0,00,00,00,00,00,00,00,00
7431384,0000000F,false,Rx,0,8,00,00,07,00,78,48,4B,4C
7471286,0000003D,false,Rx,0,0,00,00,00,00,00,00,00,00
7481369,0000001C,false,Rx,0,4,FE,FC,01,F8,00,00,00,00
7521507,0000003D,false,Rx,0,0,00,00,00,00,00,00,00,00
7531388,0000000F,false,Rx,0,8,00,00,07,00,79,48,4B,4C
7571292,0000003D,false,Rx,0,0,00,00,00,00,00,00,00,00
7581447,0000001C,false,Rx,0,4,FE,FC,01,F8,00,00,00,00
7621376,0000003D,false,Rx,0,0,00,00,00,00,00,00,00,00
7631353,0000000F,false,Rx,0,8,00,00,07,00,79,48,4B,4C
7671303,0000003D,false,Rx,0,0,00,00,00,00,00,00,00,00
7681396,0000001C,false,Rx,0,4,FE,FC,01,F8,00,00,00,00
7721452,0000003D,false,Rx,0,0,00,00,00,00,00,00,00,00
7731437,0000000F,false,Rx,0,8,00,00,07,00,7A,48,4B,4C
7771309,0000003D,false,Rx,0,0,00,00,00,00,00,00,00,00
7781395,0000001C,false,Rx,0,4,FE,FC,01,F8,00,00,00,00
7821391,0000003D,false,Rx,0,0,00,00,00,00,00,00,00,00
7831369,0000000F,false,Rx,0,8,00,00,07,00,7A,48,4B,4C
7871314,0000003D,false,Rx,0,0,00,00,00,00,00,00,00,00
7881408,0000001C,false,Rx,0,4,FE,FC,01,F8,00,00,00,00
7921575,0000003D,false,Rx,0,0,00,00,00,00,00,00,00,00
7931498,0000000F,false,Rx,0,8,00,00,07,00,7A,48,4B,4C
7971323,0000003D,false,Rx,0,0,00,00,00,00,00,00,00,00
7981419,0000001C,false,Rx,0,4,FE,FC,01,F8,00,00,00,00
8021409,0000003D,false,Rx,0,0,00,00,00,00,00,00,00,00
8031382,0000000F,false,Rx,0,8,00,00,07,00,7A,48,4B,4C
8071330,0000003D,false,Rx,0,0,00,00,00,00,00,00,00,00
8081506,0000001C,false,Rx,0,4,FE,FC,01,F8,00,00,00,00
8121549,0000003D,false,Rx,0,0,00,00,00,00,00,00,00,00
8131466,0000000F,false,Rx,0,8,00,00,07,00,7A,48,4B,4C
8171339,0000003D,false,Rx,0,0,00,00,00,00,00,00,00,00
8181428,0000001C,false,Rx,0,4,FE,FC,01,F8,00,00,00,00
8221423,0000003D,false,Rx,0,0,00,00,00,00,00,00,00,00
8231384,0000000F,false,Rx,0,8,00,00,07,00,7B,48,4B,4C
8271347,0000003D,false,Rx,0,0,00,00,00,00,00,00,00,00
8281485,0000001C,false,Rx,0,4,FE,FC,01,F8,00,00,00,00
8321560,0000003D,false,Rx,0,0,00,00,00,00,00,00,00,00
8331480,0000000F,false,Rx,0,8,00,00,07,00,7B,48,4B,4C
8371354,0000003D,false,Rx,0,0,00,00,00,00,00,00,00,00
8381440,0000001C,false,Rx,0,4,FE,FC,01,F8,00,00,00,00
8421476,0000003D,false,Rx,0,0,00,00,00,00,00,00,00,00
8431469,0000000F,false,Rx,0,8,00,00,07,00,7B,48,4B,4C
8471351,0000003D,false,Rx,0,0,00,00,00,00,00,00,00,00
8481398,0000001C,false,Rx,0,4,FE,FC,01,F8,00,00,00,00
8521513,0000003D,false,Rx,0,0,00,00,00,00,00,00,00,00
8531448,0000000F,false,Rx,0,8,00,00,07,00,7B,48,4B,4C
8571368,0000003D,false,Rx,0,0,00,00,00,00,00,00,00,00
8581526,0000001C,false,Rx,0,4,FE,FC,01,F8,00,00,00,00
8621452,0000003D,false,Rx,0,0,00,00,00,00,00,00,00,00
8631425,0000000F,false,Rx,0,8,00,00,07,00,7B,48,4B,4C
8671377,0000003D,false,Rx,0,0,00,00,00,00,00,00,00,00
8681503,0000001C,false,Rx,0,4,FE,FC,01,F8,00,00,00,00
8721594,0000003D,false,Rx,0,0,00,00,00,00,00,00,00,00
8731515,0000000F,false,Rx,0,8,00,00,07,00,7B,48,4B,4C
8771373,0000003D,false,Rx,0,0,00,00,00,00,00,00,00,00
8781419,0000001C,false,Rx,0,4,FE,FC,01,F8,00,00,00,00
8821466,0000003D,false,Rx,0,0,00,00,00,00,00,00,00,00
8831426,0000000F,false,Rx,0,8,00,00,07,00,7B,48,4B,4C
8871391,0000003D,false,Rx,0,0,00,00,00,00,00,00,00,00
8881527,0000001C,false,Rx,0,4,FE,FC,01,F8,00,00,00,00
8921653,0000003D,false,Rx,0,0,00,00,00,00,00,00,00,00
8931589,0000000F,false,Rx,0,8,00,00,07,00,7B,48,4B,4C
8971397,0000003D,false,Rx,0,0,00,00,00,00,00,00,00,00
8981498,0000001C,false,Rx,0,4,FE,FC,01,F8,00,00,00,00
9021484,0000003D,false,Rx,0,0,00,00,00,00,00,00,00,00
9031453,0000000F,false,Rx,0,8,00,00,07,00,7B,48,4B,4C
9071394,0000003D,false,Rx,0,0,00,00,00,00,00,00,00,00
9081603,0000001C,false,Rx,0,4,FE,FC,01,F8,00,00,00,00
9121562,0000003D,false,Rx,0,0,00,00,00,00,00,00,00,00
9131540,0000000F,false,Rx,0,8,00,00,07,00,7B,48,4B,4C
9171402,0000003D,false,Rx,0,0,00,00,00,00,00,00,00,00
9181516,0000001C,false,Rx,0,4,FE,FC,01,F8,00,00,00,00
9221502,0000003D,false,Rx,0,0,00,00,00,00,00,00,00,00
9231460,0000000F,false,Rx,0,8,00,00,07,00,7B,48,4B,4C
9271408,0000003D,false,Rx,0,0,00,00,00,00,00,00,00,00
9281546,0000001C,false,Rx,0,4,FE,FC,01,F8,00,00,00,00
9321629,0000003D,false,Rx,0,0,00,00,00,00,00,00,00,00
9331496,0000000F,false,Rx,0,8,00,00,07,00,7B,48,4B,4C
9371416,0000003D,false,Rx,0,0,00,00,00,00,00,00,00,00
9381541,0000001C,false,Rx,0,4,FE,FC,01,F8,00,00,00,00
9421555,0000003D,false,Rx,0,0,00,00,00,00,00,00,00,00
9431563,0000000F,false,Rx,0,8,00,00,07,00,7B,48,4B,4C
9471425,0000003D,false,Rx,0,0,00,00,00,00,00,00,00,00
9481513,0000001C,false,Rx,0,4,FE,FC,01,F8,00,00,00,00
9521598,0000003D,false,Rx,0,0,00,00,00,00,00,00,00,00
9531570,0000000F,false,Rx,0,8,00,00,07,00,7B,48,4B,4C
9571426,0000003D,false,Rx,0,0,00,00,00,00,00,00,00,00
9581583,0000001C,false,Rx,0,4,FE,FC,01,F8,00,00,00,00
9621535,0000003D,false,Rx,0,0,00,00,00,00,00,00,00,00
9631482,0000000F,false,Rx,0,8,00,00,07,00,7B,48,4B,4C
9671434,0000003D,false,Rx,0,0,00,00,00,00,00,00,00,00
9681523,0000001C,false,Rx,0,4,FE,FC,01,F8,00,00,00,00
9721659,0000003D,false,Rx,0,0,00,00,00,00,00,00,00,00
9731576,0000000F,false,Rx,0,8,00,00,07,00,7B,48,4B,4C
9771441,0000003D,false,Rx,0,0,00,00,00,00,00,00,00,00
9781570,0000001C,false,Rx,0,4,FE,FC,01,F8,00,00,00,00
9821548,0000003D,false,Rx,0,0,00,00,00,00,00,00,00,00
9831535,0000000F,false,Rx,0,8,00,00,07,00,7B,48,4B,4C
9871451,0000003D,false,Rx,0,0,00,00,00,00,00,00,00,00
9881594,0000001C,false,Rx,0,4,FE,FC,01,F8,00,00,00,00
9921732,0000003D,false,Rx,0,0,00,00,00,00,00,00,00,00
9931639,0000000F,false,Rx,0,8,00,00,07,00,7B,48,4B,4C
9971454,0000003D,false,Rx,0,0,00,00,00,00,00,00,00,00
9981574,0000001C,false,Rx,0,4,FE,FC,01,F8,00,00,00,00
10021543,0000003D,false,Rx,0,0,00,00,00,00,00,00,00,00
10031515,0000000F,false,Rx,0,8,00,00,07,00,7B,48,4B,4C
10071463,0000003D,false,Rx,0,0,00,00,00,00,00,00,00,00
10081587,0000001C,false,Rx,0,4,FE,FC,01,F8,00,00,00,00
10121619,0000003D,false,Rx,0,0,00,00,00,00,00,00,00,00
10131611,0000000F,false,Rx,0,8,00,00,07,00,7B,48,4B,4C
10171470,0000003D,false,Rx,0,0,00,00,00,00,00,00,00,00
10181516,0000001C,false,Rx,0,4,FE,FC,01,F8,00,00,00,00
10221559,0000003D,false,Rx,0,0,00,00,00,00,00,00,00,00
10231563,0000000F,false,Rx,0,8,00,00,07,00,7B,48,4B,4C
10271476,0000003D,false,Rx,0,0,00,00,00,00,00,00,00,00
10281552,0000001C,false,Rx,0,4,FE,FC,01,F8,00,00,00,00
10321633,0000003D,false,Rx,0,0,00,00,00,00,00,00,00,00
10331558,0000000F,false,Rx,0,8,00,00,07,00,7B,48,4B,4C
10371485,0000003D,false,Rx,0,0,00,00,00,00,00,00,00,00
10381524,0000001C,false,Rx,0,4,FE,FC,01,F8,00,00,00,00
10421607,0000003D,false,Rx,0,0,00,00,00,00,00,00,00,00
10431595,0000000F,false,Rx,0,8,00,00,07,00,7B,48,4B,4C
10471491,0000003D,false,Rx,0,0,00,00,00,00,00,00,00,00
10481562,0000001C,false,Rx,0,4,FE,FC,01,F8,00,00,00,00
10521647,0000003D,false,Rx,0,0,00,00,00,00,00,00,00,00
10531571,0000000F,false,Rx,0,8,00,00,07,00,7B,48,4B,4C
10571502,0000003D,false,Rx,0,0,00,00,00,00,00,00,00,00
10581587,0000001C,false,Rx,0,4,FE,FC,01,F8,00,00,00,00
10621583,0000003D,false,Rx,0,0,00,00,00,00,00,00,00,00
10631587,0000000F,false,Rx,0,8,00,00,07,00,7B,48,4B,4C
10671510,0000003D,false,Rx,0,0,00,00,00,00,00,00,00,00
10681577,0000001C,false,Rx,0,4,FE,FC,01,F8,00,00,00,00
10721665,0000003D,false,Rx,0,0,00,00,00,00,00,00,00,00
10731581,0000000F,false,Rx,0,8,00,00,07,00,7B,48,4B,4C
10771518,0000003D,false,Rx,0,0,00,00,00,00,00,00,00,00
10781547,0000001C,false,Rx,0,4,FE,FC,01,F8,00,00,00,00
10821601,0000003D,false,Rx,0,0,00,00,00,00,00,00,00,00
10831556,0000000F,false,Rx,0,8,00,00,07,00,7B,48,4B,4C
10871523,0000003D,false,Rx,0,0,00,00,00,00,00,00,00,00
10881593,0000001C,false,Rx,0,4,FE,FC,01,F8,00,00,00,00
10921760,0000003D,false,Rx,0,0,00,00,00,00,00,00,00,00
10931642,0000000F,false,Rx,0,8,00,00,07,00,7B,48,4B,4C
10971535,0000003D,false,Rx,0,0,00,00,00,00,00,00,00,00
10981649,0000001C,false,Rx,0,4,FE,FC,01,F8,00,00,00,00
11021644,0000003D,false,Rx,0,0,00,00,00,00,00,00,00,00
11031588,0000000F,false,Rx,0,8,00,00,07,00,7B,48,4B,4C
11071539,0000003D,false,Rx,0,0,00,00,00,00,00,00,00,00
11081632,0000001C,false,Rx,0,4,FE,FC,01,F8,00,00,00,00
11121665,0000003D,false,Rx,0,0,00,00,00,00,00,00,00,00
11131608,0000000F,false,Rx,0,8,00,00,07,00,7B,48,4B,4C
11171583,0000003D,false,Rx,0,0,00,00,00,00,00,00,00,00
11181589,0000001C,false,Rx,0,4,FE,FC,01,F8,00,00,00,00
11221632,0000003D,false,Rx,0,0,00,00,00,00,00,00,00,00
11231585,0000000F,false,Rx,0,8,00,00,07,00,7A,49,4B,4C
11271555,0000003D,false,Rx,0,0,00,00,00,00,00,00,00,00
11281587,0000001C,false,Rx,0,4,FE,FC,01,F8,00,00,00,00
11321678,0000003D,false,Rx,0,0,00,00,00,00,00,00,00,00
11331589,0000000F,false,Rx,0,8,00,00,07,00,7A,49,4B,4C
