"Time Stamp",ID,Extended,Dir,Bus,LEN,D1,D2,D3,D4,D5,D6,D7,D8
122530662,0000003D,false,Rx,0,0,00,00,00,00,00,00,00,00
2537,00000005,false,Rx,0,0,00,00,00,00,00,00,00,00
32541,00000022,false,Rx,0,5,F7,52,28,99,02,00,00,00
42555,00000009,false,Rx,0,8,01,40,30,00,03,00,FA,FA
72556,00000029,false,Rx,0,8,05,00,F0,00,00,50,23,00
92544,00000006,false,Rx,0,0,00,00,00,00,00,00,00,00
102541,00000005,false,Rx,0,0,00,00,00,00,00,00,00,00
122545,00000017,false,Rx,0,8,20,FF,11,00,00,FF,FF,FC
132591,00000022,false,Rx,0,5,F7,52,28,99,02,00,00,00
142555,00000009,false,Rx,0,8,01,40,30,00,03,00,FA,FA
152533,00000018,false,Rx,0,8,00,00,E0,58,7D,08,20,FC
162550,00000033,false,Rx,0,4,00,C0,00,03,00,00,00,00
172556,00000029,false,Rx,0,8,05,00,F0,00,00,50,23,00
192538,00000006,false,Rx,0,0,00,00,00,00,00,00,00,00
202548,00000005,false,Rx,0,0,00,00,00,00,00,00,00,00
232543,00000022,false,Rx,0,5,F8,52,28,99,02,00,00,00
242559,00000009,false,Rx,0,8,01,40,30,00,03,00,FA,FA
272606,00000029,false,Rx,0,8,05,00,F0,00,00,50,23,00
292545,00000006,false,Rx,0,0,00,00,00,00,00,00,00,00
302549,00000005,false,Rx,0,0,00,00,00,00,00,00,00,00
322546,00000017,false,Rx,0,8,20,FF,11,00,00,FF,FF,FC
332547,00000022,false,Rx,0,5,F7,52,28,99,02,00,00,00
342560,00000009,false,Rx,0,8,01,40,30,00,03,00,FA,FA
352538,00000018,false,Rx,0,8,00,00,E0,59,7D,08,20,FC
362538,00000034,false,Rx,0,0,00,00,00,00,00,00,00,00
372558,00000029,false,Rx,0,8,05,00,F0,00,00,50,23,00
392539,00000006,false,Rx,0,0,00,00,00,00,00,00,00,00
402540,00000005,false,Rx,0,0,00,00,00,00,00,00,00,00
432547,00000022,false,Rx,0,4,F7,62,28,98,00,00,00,00
442561,00000009,false,Rx,0,8,01,40,30,00,03,00,FA,FA
472562,00000029,false,Rx,0,8,05,00,F0,00,00,50,23,00
492576,00000006,false,Rx,0,0,00,00,00,00,00,00,00,00
502544,00000005,false,Rx,0,0,00,00,00,00,00,00,00,00
522551,00000017,false,Rx,0,8,20,FF,11,00,00,FF,FF,FC
532551,00000022,false,Rx,0,5,F8,52,28,99,02,00,00,00
542561,00000009,false,Rx,0,8,01,40,30,00,03,00,FA,FA
552539,00000018,false,Rx,0,8,00,00,E0,59,7D,08,20,FC
562556,00000033,false,Rx,0,4,00,C0,00,03,00,00,00,00
572563,00000029,false,Rx,0,8,05,00,F0,00,00,50,23,00
592544,00000006,false,Rx,0,0,00,00,00,00,00,00,00,00
602551,00000005,false,Rx,0,0,00,00,00,00,00,00,00,00
632552,00000022,false,Rx,0,5,F8,52,28,99,02,00,00,00
642562,00000009,false,Rx,0,8,01,40,30,00,03,00,FA,FA
672567,00000029,false,Rx,0,8,05,00,F0,00,00,50,23,00
692551,00000006,false,Rx,0,0,00,00,00,00,00,00,00,00
702555,00000005,false,Rx,0,0,00,00,00,00,00,00,00,00
722552,00000017,false,Rx,0,8,20,FF,11,00,00,FF,FF,FC
732569,00000022,false,Rx,0,5,F8,52,28,99,02,00,00,00
742566,00000009,false,Rx,0,8,01,40,30,00,03,00,FA,FA
752544,00000018,false,Rx,0,8,00,00,E0,58,7D,08,20,FC
762544,00000034,false,Rx,0,0,00,00,00,00,00,00,00,00
772609,00000029,false,Rx,0,8,05,00,F0,00,00,50,23,00
792587,00000006,false,Rx,0,0,00,00,00,00,00,00,00,00
802546,00000005,false,Rx,0,0,00,00,00,00,00,00,00,00
832553,00000022,false,Rx,0,5,F8,62,28,98,02,00,00,00
842567,00000009,false,Rx,0,8,01,40,30,00,03,00,FA,FA
872568,00000029,false,Rx,0,8,05,00,F0,00,00,50,23,00
892582,00000006,false,Rx,0,0,00,00,00,00,00,00,00,00
902550,00000005,false,Rx,0,0,00,00,00,00,00,00,00,00
922554,00000017,false,Rx,0,8,20,FF,11,00,00,FF,FF,FC
932557,00000022,false,Rx,0,5,F8,52,28,98,02,00,00,00
942567,00000009,false,Rx,0,8,01,40,30,00,03,00,FA,FA
952545,00000018,false,Rx,0,8,00,00,E0,59,7D,08,20,FC
962562,00000033,false,Rx,0,4,00,C0,00,03,00,00,00,00
972569,00000029,false,Rx,0,8,05,00,F0,00,00,50,23,00
992547,00000006,false,Rx,0,0,00,00,00,00,00,00,00,00
1002557,00000005,false,Rx,0,0,00,00,00,00,00,00,00,00
1032555,00000022,false,Rx,0,5,F8,52,28,98,02,00,00,00
1042571,00000009,false,Rx,0,8,01,40,30,00,03,00,FA,FA
1072573,00000029,false,Rx,0,8,05,00,F0,00,00,50,23,00
1092557,00000006,false,Rx,0,0,00,00,00,00,00,00,00,00
1102561,00000005,false,Rx,0,0,00,00,00,00,00,00,00,00
1122558,00000017,false,Rx,0,8,20,FF,11,00,00,FF,FF,FC
1132604,00000022,false,Rx,0,5,F8,52,28,98,02,00,00,00
1142569,00000009,false,Rx,0,8,01,40,30,00,03,00,FA,FA
1152550,00000018,false,Rx,0,8,00,00,E0,58,7D,08,20,FC
1162547,00000034,false,Rx,0,0,00,00,00,00,00,00,00,00
1172570,00000029,false,Rx,0,8,05,00,F0,00,00,50,23,00
1192551,00000006,false,Rx,0,0,00,00,00,00,00,00,00,00
1202552,00000005,false,Rx,0,0,00,00,00,00,00,00,00,00
1232559,00000022,false,Rx,0,5,F8,52,28,98,02,00,00,00
1242573,00000009,false,Rx,0,8,01,40,30,00,03,00,FA,FA
1272619,00000029,false,Rx,0,8,05,00,F0,00,00,50,23,00
1292588,00000006,false,Rx,0,0,00,00,00,00,00,00,00,00
1302556,00000005,false,Rx,0,0,00,00,00,00,00,00,00,00
1322560,00000017,false,Rx,0,8,20,FF,11,00,00,FF,FF,FC
1332563,00000022,false,Rx,0,5,F8,52,28,98,02,00,00,00
1342573,00000009,false,Rx,0,8,01,40,30,00,03,00,FA,FA
1352551,00000018,false,Rx,0,8,00,00,E0,58,7D,08,20,FC
1362568,00000033,false,Rx,0,4,00,C0,00,03,00,00,00,00
1372575,00000029,false,Rx,0,8,05,00,F0,00,00,50,23,00
1392556,00000006,false,Rx,0,0,00,00,00,00,00,00,00,00
1402563,00000005,false,Rx,0,0,00,00,00,00,00,00,00,00
1432561,00000022,false,Rx,0,5,F8,52,28,98,02,00,00,00
1442574,00000009,false,Rx,0,8,01,40,30,00,03,00,FA,FA
1472579,00000029,false,Rx,0,8,05,00,F0,00,00,50,23,00
1492563,00000006,false,Rx,0,0,00,00,00,00,00,00,00,00
1502567,00000005,false,Rx,0,0,00,00,00,00,00,00,00,00
1522564,00000017,false,Rx,0,8,20,FF,11,00,00,FF,FF,FC
1532565,00000022,false,Rx,0,5,F7,52,28,99,02,00,00,00
1542575,00000009,false,Rx,0,8,01,40,30,00,03,00,FA,FA
1552556,00000018,false,Rx,0,8,00,00,E0,58,7D,08,20,FC
1562553,00000034,false,Rx,0,0,00,00,00,00,00,00,00,00
1572576,00000029,false,Rx,0,8,05,00,F0,00,00,50,23,00
1592557,00000006,false,Rx,0,0,00,00,00,00,00,00,00,00
1602558,00000005,false,Rx,0,0,00,00,00,00,00,00,00,00
1632565,00000022,false,Rx,0,5,F8,52,28,98,02,00,00,00
1642579,00000009,false,Rx,0,8,01,40,30,00,03,00,FA,FA
1672580,00000029,false,Rx,0,8,05,00,F0,00,00,50,23,00
1692568,00000006,false,Rx,0,0,00,00,00,00,00,00,00,00
1702562,00000005,false,Rx,0,0,00,00,00,00,00,00,00,00
1722566,00000017,false,Rx,0,8,20,FF,11,00,00,FF,FF,FC
1732569,00000022,false,Rx,0,5,F8,52,28,98,02,00,00,00
1742580,00000009,false,Rx,0,8,01,40,30,00,03,00,FA,FA
1752557,00000018,false,Rx,0,8,00,00,E0,59,7D,08,20,FC
1762574,00000033,false,Rx,0,4,00,C0,00,03,00,00,00,00
1772626,00000029,false,Rx,0,8,05,00,F0,00,00,50,23,00
1792559,00000006,false,Rx,0,0,00,00,00,00,00,00,00,00
1802569,00000005,false,Rx,0,0,00,00,00,00,00,00,00,00
1832567,00000022,false,Rx,0,5,F8,52,28,98,02,00,00,00
1842580,00000009,false,Rx,0,8,01,40,30,00,03,00,FA,FA
1872585,00000029,false,Rx,0,8,05,00,F0,00,00,50,23,00
1892569,00000006,false,Rx,0,0,00,00,00,00,00,00,00,00
1902573,00000005,false,Rx,0,0,00,00,00,00,00,00,00,00
1922570,00000017,false,Rx,0,8,20,FF,11,00,00,FF,FF,FC
1932571,00000022,false,Rx,0,5,F8,52,28,98,02,00,00,00
1942581,00000009,false,Rx,0,8,01,40,30,00,03,00,FA,FA
1952562,00000018,false,Rx,0,8,00,00,E0,59,7D,08,20,FC
1962559,00000034,false,Rx,0,0,00,00,00,00,00,00,00,00
1972582,00000029,false,Rx,0,8,05,00,F0,00,00,50,23,00
1992563,00000006,false,Rx,0,0,00,00,00,00,00,00,00,00
2002564,00000005,false,Rx,0,0,00,00,00,00,00,00,00,00
2032568,00000022,false,Rx,0,5,F8,52,28,98,02,00,00,00
2042585,00000009,false,Rx,0,8,01,40,30,00,03,00,FA,FA
2072586,00000029,false,Rx,0,8,05,00,F0,00,00,50,23,00
2092571,00000006,false,Rx,0,0,00,00,00,00,00,00,00,00
2102568,00000005,false,Rx,0,0,00,00,00,00,00,00,00,00
2122572,00000017,false,Rx,0,8,20,FF,11,00,00,FF,FF,FC
2132618,00000022,false,Rx,0,5,F8,52,28,98,02,00,00,00
2142586,00000009,false,Rx,0,8,01,40,30,00,03,00,FA,FA
2152563,00000018,false,Rx,0,8,00,00,E0,58,7D,08,20,FC
2162580,00000033,false,Rx,0,4,00,C0,00,03,00,00,00,00
2172587,00000029,false,Rx,0,8,05,00,F0,00,00,50,23,00
2192565,00000006,false,Rx,0,0,00,00,00,00,00,00,00,00
2202575,00000005,false,Rx,0,0,00,00,00,00,00,00,00,00
2232573,00000022,false,Rx,0,5,F8,52,28,99,02,00,00,00
2242586,00000009,false,Rx,0,8,01,40,30,00,03,00,FA,FA
2272636,00000029,false,Rx,0,8,05,00,F0,00,00,50,23,00
2292601,00000006,false,Rx,0,0,00,00,00,00,00,00,00,00
2302579,00000005,false,Rx,0,0,00,00,00,00,00,00,00,00
2322577,00000017,false,Rx,0,8,20,FF,11,00,00,FF,FF,FC
2332577,00000022,false,Rx,0,5,F8,52,28,98,02,00,00,00
2342587,00000009,false,Rx,0,8,01,40,30,00,03,00,FA,FA
2352568,00000018,false,Rx,0,8,00,00,E0,59,7D,08,20,FC
2362565,00000034,false,Rx,0,0,00,00,00,00,00,00,00,00
2372585,00000029,false,Rx,0,8,05,00,F0,00,00,50,23,00
2392570,00000006,false,Rx,0,0,00,00,00,00,00,00,00,00
2402570,00000005,false,Rx,0,0,00,00,00,00,00,00,00,00
2432574,00000022,false,Rx,0,5,F8,52,28,99,02,00,00,00
2442588,00000009,false,Rx,0,8,01,40,30,00,03,00,FA,FA
2472592,00000029,false,Rx,0,8,05,00,F0,00,00,50,23,00
2492580,00000006,false,Rx,0,0,00,00,00,00,00,00,00,00
2502574,00000005,false,Rx,0,0,00,00,00,00,00,00,00,00
2522578,00000017,false,Rx,0,8,20,FF,11,00,00,FF,FF,FC
2532578,00000022,false,Rx,0,5,F8,52,28,98,02,00,00,00
2542592,00000009,false,Rx,0,8,01,40,30,00,03,00,FA,FA
2552569,00000018,false,Rx,0,8,00,00,E0,59,7D,08,20,FC
2562586,00000033,false,Rx,0,4,00,C0,00,03,00,00,00,00
2572590,00000029,false,Rx,0,8,05,00,F0,00,00,50,23,00
2592571,00000006,false,Rx,0,0,00,00,00,00,00,00,00,00
2602581,00000005,false,Rx,0,0,00,00,00,00,00,00,00,00
2632579,00000022,false,Rx,0,5,F8,52,28,99,02,00,00,00
2642592,00000009,false,Rx,0,8,01,40,30,00,03,00,FA,FA
2672597,00000029,false,Rx,0,8,05,00,F0,00,00,50,23,00
2692581,00000006,false,Rx,0,0,00,00,00,00,00,00,00,00
2702585,00000005,false,Rx,0,0,00,00,00,00,00,00,00,00
2722583,00000017,false,Rx,0,8,20,FF,11,00,00,FF,FF,FC
2732583,00000022,false,Rx,0,5,F8,52,28,99,02,00,00,00
2742593,00000009,false,Rx,0,8,01,40,30,00,03,00,FA,FA
2752571,00000018,false,Rx,0,8,00,00,E0,59,7D,08,20,FC
2762571,00000034,false,Rx,0,0,00,00,00,00,00,00,00,00
2772640,00000029,false,Rx,0,8,05,00,F0,00,00,50,23,00
2792576,00000006,false,Rx,0,0,00,00,00,00,00,00,00,00
2802576,00000005,false,Rx,0,0,00,00,00,00,00,00,00,00
2832580,00000022,false,Rx,0,5,F8,52,28,98,02,00,00,00
2842594,00000009,false,Rx,0,8,01,40,30,00,03,00,FA,FA
2872598,00000029,false,Rx,0,8,05,00,F0,00,00,50,23,00
2892583,00000006,false,Rx,0,0,00,00,00,00,00,00,00,00
2902580,00000005,false,Rx,0,0,00,00,00,00,00,00,00,00
2922584,00000017,false,Rx,0,8,20,FF,11,00,00,FF,FF,FC
2932584,00000022,false,Rx,0,5,F8,52,28,99,02,00,00,00
2942598,00000009,false,Rx,0,8,01,40,30,00,03,00,FA,FA
2952575,00000018,false,Rx,0,8,00,00,E0,59,7D,08,20,FC
2962592,00000033,false,Rx,0,4,00,C0,00,03,00,00,00,00
2972596,00000029,false,Rx,0,8,05,00,F0,00,00,50,23,00
2992577,00000006,false,Rx,0,0,00,00,00,00,00,00,00,00
3002587,00000005,false,Rx,0,0,00,00,00,00,00,00,00,00
3032631,00000022,false,Rx,0,5,F8,52,28,98,02,00,00,00
3042598,00000009,false,Rx,0,8,01,40,30,00,03,00,FA,FA
3072600,00000029,false,Rx,0,8,05,00,F0,00,00,50,23,00
3092587,00000006,false,Rx,0,0,00,00,00,00,00,00,00,00
3102591,00000005,false,Rx,0,0,00,00,00,00,00,00,00,00
3122589,00000017,false,Rx,0,8,20,FF,11,00,00,FF,FF,FC
3132635,00000022,false,Rx,0,5,F8,52,28,99,02,00,00,00
3142599,00000009,false,Rx,0,8,01,40,30,00,03,00,FA,FA
3152577,00000018,false,Rx,0,8,00,00,E0,59,7D,08,20,FC
3162577,00000034,false,Rx,0,0,00,00,00,00,00,00,00,00
3172597,00000029,false,Rx,0,8,05,00,F0,00,00,50,23,00
3192582,00000006,false,Rx,0,0,00,00,00,00,00,00,00,00
3202582,00000005,false,Rx,0,0,00,00,00,00,00,00,00,00
3232587,00000022,false,Rx,0,4,F8,62,28,02,00,00,00,00
3242600,00000009,false,Rx,0,8,01,40,30,00,03,00,FA,FA
3272650,00000029,false,Rx,0,8,05,00,F0,00,00,50,23,00
3292589,00000006,false,Rx,0,0,00,00,00,00,00,00,00,00
3302586,00000005,false,Rx,0,0,00,00,00,00,00,00,00,00
3322590,00000017,false,Rx,0,8,20,FF,11,00,00,FF,FF,FC
3332590,00000022,false,Rx,0,5,F8,52,28,99,02,00,00,00
3342604,00000009,false,Rx,0,8,01,40,30,00,03,00,FA,FA
3352582,00000018,false,Rx,0,8,00,00,E0,59,7D,08,20,FC
3362595,00000033,false,Rx,0,4,00,C0,00,03,00,00,00,00
3372602,00000029,false,Rx,0,8,05,00,F0,00,00,50,23,00
3392583,00000006,false,Rx,0,0,00,00,00,00,00,00,00,00
3402593,00000005,false,Rx,0,0,00,00,00,00,00,00,00,00
3432591,00000022,false,Rx,0,5,F8,52,28,99,02,00,00,00
3442605,00000009,false,Rx,0,8,01,40,30,00,03,00,FA,FA
3472606,00000029,false,Rx,0,8,05,00,F0,00,00,50,23,00
3492594,00000006,false,Rx,0,0,00,00,00,00,00,00,00,00
3502597,00000005,false,Rx,0,0,00,00,00,00,00,00,00,00
3522591,00000017,false,Rx,0,8,20,FF,11,00,00,FF,FF,FC
3532595,00000022,false,Rx,0,5,F8,52,28,99,02,00,00,00
3542605,00000009,false,Rx,0,8,01,40,30,00,03,00,FA,FA
3552583,00000018,false,Rx,0,8,00,00,E0,59,7D,08,20,FC
3562583,00000034,false,Rx,0,0,00,00,00,00,00,00,00,00
3572603,00000029,false,Rx,0,8,05,00,F0,FD,80,50,23,00
3592588,00000006,false,Rx,0,0,00,00,00,00,00,00,00,00
3602588,00000005,false,Rx,0,0,00,00,00,00,00,00,00,00
3632593,00000022,false,Rx,0,5,F8,52,28,98,02,00,00,00
3642606,00000009,false,Rx,0,8,20,40,32,03,03,01,FA,FA
3672610,00000029,false,Rx,0,8,A5,2A,F2,FD,80,50,23,00
3692595,00000006,false,Rx,0,0,00,00,00,00,00,00,00,00
3702592,00000005,false,Rx,0,0,00,00,00,00,00,00,00,00
3722596,00000017,false,Rx,0,8,20,FF,11,00,00,FF,FF,FC
3732597,00000022,false,Rx,0,5,F8,52,28,99,02,00,00,00
3742607,00000009,false,Rx,0,8,20,40,32,03,03,01,FA,FA
3752588,00000018,false,Rx,0,8,00,00,E0,59,7D,08,20,FC
3762601,00000033,false,Rx,0,4,00,C0,00,03,00,00,00,00
3772653,00000029,false,Rx,0,8,A5,2A,F2,FD,80,50,23,00
3792589,00000006,false,Rx,0,0,00,00,00,00,00,00,00,00
3802599,00000005,false,Rx,0,0,00,00,00,00,00,00,00,00
3832597,00000022,false,Rx,0,5,F8,52,28,99,02,00,00,00
3842611,00000009,false,Rx,0,8,20,40,32,03,03,01,FA,FA
3872612,00000029,false,Rx,0,8,A5,2A,F2,FD,80,50,23,00
3892600,00000006,false,Rx,0,0,00,00,00,00,00,00,00,00
3902603,00000005,false,Rx,0,0,00,00,00,00,00,00,00,00
3922598,00000017,false,Rx,0,8,20,FF,11,00,00,FF,FF,FC
3932601,00000022,false,Rx,0,5,F8,52,28,98,02,00,00,00
3942611,00000009,false,Rx,0,8,20,40,32,03,03,01,FA,FA
3952589,00000018,false,Rx,0,8,00,00,E0,59,7D,08,20,FC
3962590,00000034,false,Rx,0,0,00,00,00,00,00,00,00,00
3972609,00000029,false,Rx,0,8,A5,2A,F2,FD,80,50,23,00
3992594,00000006,false,Rx,0,0,00,00,00,00,00,00,00,00
4002594,00000005,false,Rx,0,0,00,00,00,00,00,00,00,00
4032599,00000022,false,Rx,0,4,F8,62,28,02,00,00,00,00
4042612,00000009,false,Rx,0,8,20,40,32,03,03,01,FA,FA
4072617,00000029,false,Rx,0,8,A5,2A,F2,FD,80,50,23,00
4092601,00000006,false,Rx,0,0,00,00,00,00,00,00,00,00
4102598,00000005,false,Rx,0,0,00,00,00,00,00,00,00,00
4122602,00000017,false,Rx,0,8,20,FF,11,00,00,FF,FF,FC
4132645,00000022,false,Rx,0,5,F8,52,28,99,02,00,00,00
4142613,00000009,false,Rx,0,8,20,40,32,03,03,01,FA,FA
4152591,00000018,false,Rx,0,8,00,00,E0,59,7D,08,20,FC
4162607,00000033,false,Rx,0,4,00,C0,00,03,00,00,00,00
4172614,00000029,false,Rx,0,8,A5,2A,F2,FD,80,50,23,00
4192595,00000006,false,Rx,0,0,00,00,00,00,00,00,00,00
4202606,00000005,false,Rx,0,0,00,00,00,00,00,00,00,00
4232604,00000022,false,Rx,0,5,F8,52,28,99,02,00,00,00
4242617,00000009,false,Rx,0,8,20,40,32,03,03,01,FA,FA
4272654,00000029,false,Rx,0,8,A5,2A,F2,FD,80,50,23,00
4292606,00000006,false,Rx,0,0,00,00,00,00,00,00,00,00
4302610,00000005,false,Rx,0,0,00,00,00,00,00,00,00,00
4322604,00000017,false,Rx,0,8,20,FF,11,00,00,FF,FF,FC
4332608,00000022,false,Rx,0,5,F8,52,28,99,02,00,00,00
4342618,00000009,false,Rx,0,8,20,40,32,03,03,01,FA,FA
4352595,00000018,false,Rx,0,8,00,00,E0,59,7D,08,20,FC
4362596,00000034,false,Rx,0,0,00,00,00,00,00,00,00,00
4372616,00000029,false,Rx,0,8,A5,2A,F2,FD,80,50,23,00
4392600,00000006,false,Rx,0,0,00,00,00,00,00,00,00,00
4402601,00000005,false,Rx,0,0,00,00,00,00,00,00,00,00
4432605,00000022,false,Rx,0,5,F8,52,28,99,02,00,00,00
4442618,00000009,false,Rx,0,8,20,40,32,03,03,01,FA,FA
4472623,00000029,false,Rx,0,8,A5,2A,F2,FD,80,50,23,00
4492607,00000006,false,Rx,0,0,00,00,00,00,00,00,00,00
4502605,00000005,false,Rx,0,0,00,00,00,00,00,00,00,00
4522609,00000017,false,Rx,0,8,20,FF,11,00,00,FF,FF,FC
4532609,00000022,false,Rx,0,5,F7,52,28,99,02,00,00,00
4542619,00000009,false,Rx,0,8,20,40,32,03,03,01,FA,FA
4552600,00000018,false,Rx,0,8,00,00,E0,59,7D,08,20,FC
4562613,00000033,false,Rx,0,4,00,C0,00,03,00,00,00,00
4572620,00000029,false,Rx,0,8,A5,2A,F2,FD,80,50,23,00
4592602,00000006,false,Rx,0,0,00,00,00,00,00,00,00,00
4602612,00000005,false,Rx,0,0,00,00,00,00,00,00,00,00
4632607,00000022,false,Rx,0,5,F8,52,28,99,02,00,00,00
4642623,00000009,false,Rx,0,8,20,40,32,03,03,01,FA,FA
4672624,00000029,false,Rx,0,8,A5,2A,F2,FD,80,50,23,00
4692612,00000006,false,Rx,0,0,00,00,00,00,00,00,00,00
4702616,00000005,false,Rx,0,0,00,00,00,00,00,00,00,00
4722610,00000017,false,Rx,0,8,20,FF,11,00,00,FF,FF,FC
4732611,00000022,false,Rx,0,5,F8,52,28,99,02,00,00,00
4742624,00000009,false,Rx,0,8,20,40,32,03,03,01,FA,FA
4752602,00000018,false,Rx,0,8,00,00,E0,59,7D,08,20,FC
4762602,00000034,false,Rx,0,0,00,00,00,00,00,00,00,00
4772664,00000029,false,Rx,0,8,A5,2A,F2,FD,80,50,23,00
4792603,00000006,false,Rx,0,0,00,00,00,00,00,00,00,00
4802607,00000005,false,Rx,0,0,00,00,00,00,00,00,00,00
4832611,00000022,false,Rx,0,5,F7,52,28,99,02,00,00,00
4842625,00000009,false,Rx,0,8,20,40,32,03,03,01,FA,FA
4872629,00000029,false,Rx,0,8,A5,2A,F2,FD,80,50,23,00
4892614,00000006,false,Rx,0,0,00,00,00,00,00,00,00,00
4902611,00000005,false,Rx,0,0,00,00,00,00,00,00,00,00
4922615,00000017,false,Rx,0,8,20,FF,11,00,00,FF,FF,FC
4932615,00000022,false,Rx,0,4,F8,62,28,02,00,00,00,00
4942625,00000009,false,Rx,0,8,20,40,32,03,03,01,FA,FA
4952629,00000018,false,Rx,0,8,00,00,E0,59,7D,08,20,FC
4962620,00000033,false,Rx,0,4,00,C0,00,03,00,00,00,00
4972627,00000029,false,Rx,0,8,A5,2A,F2,FD,80,50,23,00
4992627,00000006,false,Rx,0,0,00,00,00,00,00,00,00,00
5002618,00000005,false,Rx,0,0,00,00,00,00,00,00,00,00
5032613,00000022,false,Rx,0,5,F8,52,28,99,02,00,00,00
5042629,00000009,false,Rx,0,8,20,40,32,03,03,01,FA,FA
5072630,00000029,false,Rx,0,8,A5,2A,F2,FD,80,50,23,00
5092618,00000006,false,Rx,0,0,00,00,00,00,00,00,00,00
5102622,00000005,false,Rx,0,0,00,00,00,00,00,00,00,00
5122616,00000017,false,Rx,0,8,20,FF,11,00,00,FF,FF,FC
5132662,00000022,false,Rx,0,5,F8,52,28,99,02,00,00,00
5142630,00000009,false,Rx,0,8,20,40,32,03,03,01,FA,FA
5152630,00000018,false,Rx,0,8,00,00,E0,59,7D,08,20,FC
5162608,00000034,false,Rx,0,0,00,00,00,00,00,00,00,00
5172628,00000029,false,Rx,0,8,A5,2A,F2,FD,80,50,23,00
5192609,00000006,false,Rx,0,0,00,00,00,00,00,00,00,00
5202613,00000005,false,Rx,0,0,00,00,00,00,00,00,00,00
5232617,00000022,false,Rx,0,5,F8,52,28,99,02,00,00,00
5242630,00000009,false,Rx,0,8,20,40,32,03,03,01,FA,FA
5272667,00000029,false,Rx,0,8,A5,2A,F2,FD,80,50,23,00
5292619,00000006,false,Rx,0,0,00,00,00,00,00,00,00,00
5302616,00000005,false,Rx,0,0,00,00,00,00,00,00,00,00
5322620,00000017,false,Rx,0,8,20,FF,11,00,00,FF,FF,FC
5332620,00000022,false,Rx,0,5,F7,52,28,99,02,00,00,00
5342631,00000009,false,Rx,0,8,20,40,32,03,03,01,FA,FA
5352634,00000018,false,Rx,0,8,00,00,E0,59,7D,08,20,FC
5362625,00000033,false,Rx,0,4,00,C0,00,03,00,00,00,00
5372632,00000029,false,Rx,0,8,A5,2A,F2,FD,80,50,23,00
5392614,00000006,false,Rx,0,0,00,00,00,00,00,00,00,00
5402624,00000005,false,Rx,0,0,00,00,00,00,00,00,00,00
5432619,00000022,false,Rx,0,5,F8,52,28,99,02,00,00,00
5442632,00000009,false,Rx,0,8,20,40,32,03,03,01,FA,FA
5472637,00000029,false,Rx,0,8,A5,2A,F2,FD,80,50,23,00
5492650,00000006,false,Rx,0,0,00,00,00,00,00,00,00,00
5502625,00000005,false,Rx,0,0,00,00,00,00,00,00,00,00
5522622,00000017,false,Rx,0,8,20,FF,11,00,00,FF,FF,FC
5532623,00000022,false,Rx,0,5,F8,52,28,99,02,00,00,00
5542636,00000009,false,Rx,0,8,20,40,32,03,03,01,FA,FA
5552623,00000018,false,Rx,0,8,00,00,E0,59,7D,08,20,FC
5562614,00000034,false,Rx,0,0,00,00,00,00,00,00,00,00
5572631,00000029,false,Rx,0,8,A5,2A,F2,FD,80,50,23,00
5592625,00000006,false,Rx,0,0,00,00,00,00,00,00,00,00
5602622,0000003C,false,Rx,0,8,20,03,22,63,02,FF,FF,FF
5612616,00000005,false,Rx,0,0,00,00,00,00,00,00,00,00
5642621,00000022,false,Rx,0,5,F8,52,28,99,02,00,00,00
5652660,00000009,false,Rx,0,8,20,40,32,03,03,01,FA,FA
5682642,0000003D,false,Rx,0,8,20,10,0E,62,63,02,31,45
5692652,00000029,false,Rx,0,8,A5,2A,F2,FD,80,50,23,00
5712627,00000006,false,Rx,0,0,00,00,00,00,00,00,00,00
5722631,0000003D,false,Rx,0,8,20,21,41,38,31,36,35,39
5732640,00000005,false,Rx,0,0,00,00,00,00,00,00,00,00
5752641,00000017,false,Rx,0,8,20,FF,11,00,00,FF,FF,FC
5762622,00000022,false,Rx,0,5,F8,52,28,99,02,00,00,00
5772665,00000009,false,Rx,0,8,20,40,32,03,03,01,FA,FA
5782629,0000003D,false,Rx,0,8,20,22,30,42,20,FF,FF,FF
5792633,00000018,false,Rx,0,8,00,00,E0,59,7D,08,20,FC
5802633,00000033,false,Rx,0,4,00,C0,00,03,00,00,00,00
5812640,00000029,false,Rx,0,8,A5,2A,F2,FD,80,50,23,00
5832625,00000006,false,Rx,0,0,00,00,00,00,00,00,00,00
5842625,00000005,false,Rx,0,0,00,00,00,00,00,00,00,00
5872626,00000022,false,Rx,0,5,F7,52,28,9A,02,00,00,00
5882637,0000003C,false,Rx,0,8,20,03,22,65,02,FF,FF,FF
5892637,00000009,false,Rx,0,8,20,40,32,03,03,01,FA,FA
5922635,00000029,false,Rx,0,8,A5,2A,F2,FD,80,50,23,00
5942629,0000003D,false,Rx,0,8,20,10,07,62,65,02,30,30
5952678,00000006,false,Rx,0,0,00,00,00,00,00,00,00,00
5962647,00000005,false,Rx,0,0,00,00,00,00,00,00,00,00
5982638,00000017,false,Rx,0,8,20,FF,11,00,00,FF,FF,FC
5992625,00000022,false,Rx,0,5,F8,52,28,9A,02,00,00,00
6002635,0000003D,false,Rx,0,8,20,21,30,32,FF,FF,FF,FF
6012655,00000009,false,Rx,0,8,20,40,32,03,03,01,FA,FA
6022619,00000018,false,Rx,0,8,00,00,E0,59,7D,08,20,FC
6032620,00000034,false,Rx,0,0,00,00,00,00,00,00,00,00
6042636,00000029,false,Rx,0,8,A5,2A,F2,FD,80,50,23,00
6062631,00000006,false,Rx,0,0,00,00,00,00,00,00,00,00
6072628,00000005,false,Rx,0,0,00,00,00,00,00,00,00,00
6102648,0000003C,false,Rx,0,8,20,03,22,67,02,FF,FF,FF
6112633,00000022,false,Rx,0,5,F8,52,28,99,02,00,00,00
6122643,00000009,false,Rx,0,8,20,40,32,03,03,01,FA,FA
6152631,0000003D,false,Rx,0,8,20,10,0E,62,67,02,31,45
6162674,00000029,false,Rx,0,8,A5,2A,F2,FD,80,50,23,00
6182632,00000006,false,Rx,0,0,00,00,00,00,00,00,00,00
6192636,00000005,false,Rx,0,0,00,00,00,00,00,00,00,00
6212627,0000003D,false,Rx,0,8,20,21,41,38,31,36,35,39
6222676,00000017,false,Rx,0,8,20,FF,11,00,00,FF,FF,FC
6232628,00000022,false,Rx,0,5,F8,52,28,9A,02,00,00,00
6242644,00000009,false,Rx,0,8,20,40,32,03,03,01,FA,FA
6252658,00000018,false,Rx,0,8,00,00,E0,59,7D,08,20,FC
6262629,0000003D,false,Rx,0,8,20,22,30,42,20,FF,FF,FF
6272681,00000033,false,Rx,0,4,00,C0,00,03,00,00,00,00
6282646,00000029,false,Rx,0,8,A5,2A,F2,FD,80,50,23,00
6302627,00000006,false,Rx,0,0,00,00,00,00,00,00,00,00
6312641,00000005,false,Rx,0,0,00,00,00,00,00,00,00,00
6342632,00000022,false,Rx,0,5,F8,52,28,9A,02,00,00,00
6352665,00000009,false,Rx,0,8,20,40,32,03,03,01,FA,FA
6382653,0000003C,false,Rx,0,8,20,03,22,69,02,FF,FF,FF
6392644,00000029,false,Rx,0,8,A5,2A,F2,FD,80,50,23,00
6412635,00000006,false,Rx,0,0,00,00,00,00,00,00,00,00
6422639,0000003D,false,Rx,0,8,20,06,62,69,02,48,30,35
6432662,00000005,false,Rx,0,0,00,00,00,00,00,00,00,00
6452637,00000017,false,Rx,0,8,20,FF,11,00,00,FF,FF,FC
6462637,00000022,false,Rx,0,5,F7,52,28,9A,02,00,00,00
6472654,00000009,false,Rx,0,8,20,40,32,03,03,01,FA,FA
6482631,00000018,false,Rx,0,8,00,00,E0,59,7D,08,20,FC
6492635,00000034,false,Rx,0,0,00,00,00,00,00,00,00,00
6502632,00000029,false,Rx,0,8,A5,2A,F2,FD,80,50,23,00
6522643,0000003C,false,Rx,0,8,20,03,22,6B,02,FF,FF,FF
6532633,00000006,false,Rx,0,0,00,00,00,00,00,00,00,00
6542653,00000005,false,Rx,0,0,00,00,00,00,00,00,00,00
6572635,00000022,false,Rx,0,5,F8,62,28,9A,02,00,00,00
6582645,0000003D,false,Rx,0,8,20,10,17,62,6B,02,30,32
6592671,00000009,false,Rx,0,8,20,40,32,03,03,01,FA,FA
6622640,00000029,false,Rx,0,8,A5,2A,F2,FD,80,50,23,00
6642641,0000003D,false,Rx,0,8,20,21,37,37,34,36,37,20
6652651,00000006,false,Rx,0,0,00,00,00,00,00,00,00,00
6662658,00000005,false,Rx,0,0,00,00,00,00,00,00,00,00
6682649,00000017,false,Rx,0,8,20,FF,11,00,00,FF,FF,FC
6692636,00000022,false,Rx,0,5,F8,62,28,9A,02,00,00,00
6702643,0000003D,false,Rx,0,8,20,22,20,20,20,20,20,20
6712666,00000009,false,Rx,0,8,20,40,32,03,03,01,FA,FA
6722651,00000018,false,Rx,0,8,00,00,E0,59,7D,08,20,FC
6732645,00000033,false,Rx,0,4,00,C0,00,03,00,00,00,00
6742642,00000029,false,Rx,0,8,A5,2A,F2,FD,80,50,23,00
6762642,0000003D,false,Rx,0,8,20,23,20,20,20,20,20,20
6772685,00000006,false,Rx,0,0,00,00,00,00,00,00,00,00
6782643,00000005,false,Rx,0,0,00,00,00,00,00,00,00,00
6812641,00000022,false,Rx,0,5,F8,52,28,9A,02,00,00,00
6822655,00000009,false,Rx,0,8,20,40,32,03,03,01,FA,FA
6852646,0000003C,false,Rx,0,8,20,03,22,6D,02,FF,FF,FF
6862666,00000029,false,Rx,0,8,A5,2A,F2,FD,80,50,23,00
6882644,00000006,false,Rx,0,0,00,00,00,00,00,00,00,00
6892648,00000005,false,Rx,0,0,00,00,00,00,00,00,00,00
6912635,0000003D,false,Rx,0,8,20,10,10,62,6D,02,4E,36
6922691,00000017,false,Rx,0,8,20,FF,11,00,00,FF,FF,FC
6932640,00000022,false,Rx,0,5,F8,52,28,9A,02,00,00,00
6942656,00000009,false,Rx,0,8,20,40,32,03,03,01,FA,FA
6952644,00000018,false,Rx,0,8,00,00,E0,59,7D,08,20,FC
6962641,0000003D,false,Rx,0,8,20,21,33,36,20,45,56,31
6972644,00000034,false,Rx,0,0,00,00,00,00,00,00,00,00
6982648,00000029,false,Rx,0,8,A5,2A,F2,FD,80,50,23,00
7002645,00000006,false,Rx,0,0,00,00,00,00,00,00,00,00
7012643,00000005,false,Rx,0,0,00,00,00,00,00,00,00,00
7042644,0000003D,false,Rx,0,8,20,22,5F,4B,61,4D,69,FF
7052664,00000022,false,Rx,0,5,F8,52,28,9B,02,00,00,00
7062658,00000009,false,Rx,0,8,20,40,32,03,03,01,FA,FA
7092646,00000029,false,Rx,0,8,A5,2A,F2,FD,80,50,23,00
7112647,00000006,false,Rx,0,0,00,00,00,00,00,00,00,00
7122654,0000003C,false,Rx,0,8,20,03,22,6F,02,FF,FF,FF
7132667,00000005,false,Rx,0,0,00,00,00,00,00,00,00,00
7152658,00000017,false,Rx,0,8,20,FF,11,00,00,FF,FF,FC
7162642,00000022,false,Rx,0,5,F8,52,28,9B,02,00,00,00
7172659,00000009,false,Rx,0,8,20,40,32,03,03,01,FA,FA
7182649,0000003D,false,Rx,0,8,20,10,1A,62,6F,02,56,48
7192660,00000018,false,Rx,0,8,00,00,E0,59,7D,08,20,FC
7202653,00000033,false,Rx,0,4,00,C0,00,03,00,00,00,00
7212667,00000029,false,Rx,0,8,A5,2A,F2,FD,80,50,23,00
7232648,00000006,false,Rx,0,0,00,00,00,00,00,00,00,00
7242645,0000003D,false,Rx,0,8,20,21,33,2D,56,48,33,31
7252668,00000005,false,Rx,0,0,00,00,00,00,00,00,00,00
7282647,00000022,false,Rx,0,5,F8,52,28,9A,02,00,00,00
7292664,00000009,false,Rx,0,8,20,40,32,03,03,01,FA,FA
7322658,0000003D,false,Rx,0,8,20,22,30,2E,31,31,2E,32
7332675,00000029,false,Rx,0,8,A5,2A,F2,FD,80,50,23,00
7352650,00000006,false,Rx,0,0,00,00,00,00,00,00,00,00
7362653,0000003D,false,Rx,0,8,20,23,30,30,30,30,33,30
7372663,00000005,false,Rx,0,0,00,00,00,00,00,00,00,00
7392651,00000017,false,Rx,0,8,20,FF,11,00,00,FF,FF,FC
7402658,00000022,false,Rx,0,5,F8,52,28,9B,02,00,00,00
7412658,00000009,false,Rx,0,8,20,40,32,03,03,01,FA,FA
7422653,0000003D,false,Rx,0,8,20,24,39,34,37,FF,FF,FF
7432669,00000018,false,Rx,0,8,00,00,E0,59,7D,08,20,FC
7442647,00000034,false,Rx,0,0,00,00,00,00,00,00,00,00
7452644,00000029,false,Rx,0,8,A5,2A,F2,FD,80,50,23,00
7472648,00000006,false,Rx,0,0,00,00,00,00,00,00,00,00
7482655,00000005,false,Rx,0,0,00,00,00,00,00,00,00,00
7512640,00000022,false,Rx,0,5,F7,52,28,9A,02,00,00,00
7522663,00000009,false,Rx,0,8,20,40,32,03,03,01,FA,FA
7552661,00000029,false,Rx,0,8,A5,2A,F2,FD,80,50,23,00
7572649,0000003C,false,Rx,0,8,14,03,22,62,1F,FF,FF,FF
7582662,00000006,false,Rx,0,0,00,00,00,00,00,00,00,00
7592650,00000005,false,Rx,0,0,00,00,00,00,00,00,00,00
7612663,00000017,false,Rx,0,8,20,FF,11,00,00,FF,FF,FC
7622647,0000003D,false,Rx,0,8,14,10,0E,62,62,1F,34,4D
7632680,00000022,false,Rx,0,5,F8,62,28,9B,02,00,00,00
7642661,00000009,false,Rx,0,8,20,40,32,03,03,01,FA,FA
7652655,00000018,false,Rx,0,8,00,00,E0,59,7D,08,20,FC
7662678,00000033,false,Rx,0,4,00,C0,00,03,00,00,00,00
7672663,00000029,false,Rx,0,8,A5,2A,F2,FD,80,50,23,00
7692644,0000003D,false,Rx,0,8,14,21,30,39,35,39,36,30
7702676,00000006,false,Rx,0,0,00,00,00,00,00,00,00,00
7712658,00000005,false,Rx,0,0,00,00,00,00,00,00,00,00
7742649,0000003D,false,Rx,0,8,14,22,33,45,20,FF,FF,FF
7752675,00000022,false,Rx,0,5,F8,52,28,9B,02,00,00,00
7762663,00000009,false,Rx,0,8,20,40,32,03,03,01,FA,FA
7792661,00000029,false,Rx,0,8,A5,2A,F2,FD,80,50,23,00
7812655,00000006,false,Rx,0,0,00,00,00,00,00,00,00,00
7822681,00000005,false,Rx,0,0,00,00,00,00,00,00,00,00
7842660,0000003C,false,Rx,0,8,14,03,22,64,1F,FF,FF,FF
7852670,00000017,false,Rx,0,8,20,FF,11,00,00,FF,FF,FC
7862660,00000022,false,Rx,0,5,F8,62,28,9B,02,00,00,00
7872664,00000009,false,Rx,0,8,20,40,32,03,03,01,FA,FA
7882664,00000018,false,Rx,0,8,00,00,E0,5A,7D,08,20,FC
7892665,00000034,false,Rx,0,0,00,00,00,00,00,00,00,00
7902658,0000003D,false,Rx,0,8,14,10,07,62,64,1F,30,30
7912679,00000029,false,Rx,0,8,A5,2A,F2,FD,80,50,23,00
7932656,00000006,false,Rx,0,0,00,00,00,00,00,00,00,00
7942663,00000005,false,Rx,0,0,00,00,00,00,00,00,00,00
7972652,0000003D,false,Rx,0,8,14,21,31,30,FF,FF,FF,FF
7982668,00000022,false,Rx,0,5,F8,52,28,9B,02,00,00,00
7992672,00000009,false,Rx,0,8,20,40,32,03,03,01,FA,FA
8022679,00000029,false,Rx,0,8,A5,2A,F2,FD,80,50,23,00
8042654,0000003C,false,Rx,0,8,14,03,22,66,1F,FF,FF,FF
8052671,00000006,false,Rx,0,0,00,00,00,00,00,00,00,00
8062665,00000005,false,Rx,0,0,00,00,00,00,00,00,00,00
8082685,00000017,false,Rx,0,8,20,FF,11,00,00,FF,FF,FC
8092656,00000022,false,Rx,0,5,F7,52,28,9B,02,00,00,00
8102670,0000003D,false,Rx,0,8,14,10,0E,62,66,1F,34,4D
8112686,00000009,false,Rx,0,8,20,40,32,03,03,01,FA,FA
8122661,00000018,false,Rx,0,8,00,00,E0,59,7D,08,20,FC
8132703,00000033,false,Rx,0,4,00,C0,00,03,00,00,00,00
8142678,00000029,false,Rx,0,8,A5,2A,F2,FD,80,50,23,00
8162653,0000003D,false,Rx,0,8,14,21,30,39,35,39,36,30
8172682,00000006,false,Rx,0,0,00,00,00,00,00,00,00,00
8182666,00000005,false,Rx,0,0,00,00,00,00,00,00,00,00
8212658,00000022,false,Rx,0,5,F8,52,28,9B,02,00,00,00
8222668,0000003D,false,Rx,0,8,14,22,33,45,20,FF,FF,FF
8232691,00000009,false,Rx,0,8,20,40,32,03,03,01,FA,FA
8262666,00000029,false,Rx,0,8,A5,2A,F2,FD,80,50,23,00
8282670,00000006,false,Rx,0,0,00,00,00,00,00,00,00,00
8292661,00000005,false,Rx,0,0,00,00,00,00,00,00,00,00
8312671,00000017,false,Rx,0,8,20,FF,11,00,00,FF,FF,FC
8322669,0000003C,false,Rx,0,8,14,03,22,68,1F,FF,FF,FF
8332669,00000022,false,Rx,0,5,F7,52,28,9B,02,00,00,00
8342670,00000009,false,Rx,0,8,20,40,32,03,03,01,FA,FA
8352667,00000018,false,Rx,0,8,00,00,E0,59,7D,08,20,FC
8362670,00000034,false,Rx,0,0,00,00,00,00,00,00,00,00
8372664,00000029,false,Rx,0,8,A5,2A,F2,FD,80,50,23,00
8392658,0000003D,false,Rx,0,8,14,06,62,68,1F,48,31,31
8402691,00000006,false,Rx,0,0,00,00,00,00,00,00,00,00
8412669,00000005,false,Rx,0,0,00,00,00,00,00,00,00,00
8442654,00000022,false,Rx,0,5,F7,52,28,9B,02,00,00,00
8452680,00000009,false,Rx,0,8,20,40,32,03,03,01,FA,FA
8482668,0000003C,false,Rx,0,8,14,03,22,6A,1F,FF,FF,FF
8492682,00000029,false,Rx,0,8,A5,2A,F2,FD,80,50,23,00
8512666,00000006,false,Rx,0,0,00,00,00,00,00,00,00,00
8522686,00000005,false,Rx,0,0,00,00,00,00,00,00,00,00
8542667,0000003D,false,Rx,0,8,14,03,7F,22,31,FF,FF,FF
8552694,00000017,false,Rx,0,8,20,FF,11,00,00,FF,FF,FC
8562672,00000022,false,Rx,0,5,F7,52,28,9B,02,00,00,00
8572675,00000009,false,Rx,0,8,20,40,32,03,03,01,FA,FA
8582679,00000018,false,Rx,0,8,00,00,E0,59,7D,08,20,FC
8592682,00000033,false,Rx,0,4,00,C0,00,03,00,00,00,00
8602676,00000029,false,Rx,0,8,A5,2A,F2,FD,80,50,23,00
8622658,00000006,false,Rx,0,0,00,00,00,00,00,00,00,00
8632668,00000005,false,Rx,0,0,00,00,00,00,00,00,00,00
8662666,0000003C,false,Rx,0,8,14,03,22,F1,8C,FF,FF,FF
8672670,00000022,false,Rx,0,5,F8,52,28,9C,02,00,00,00
8682676,00000009,false,Rx,0,8,20,40,32,03,03,01,FA,FA
8712671,0000003D,false,Rx,0,8,14,03,7F,22,31,FF,FF,FF
8722694,00000029,false,Rx,0,8,A5,2A,F2,FD,80,50,23,00
8742669,00000006,false,Rx,0,0,00,00,00,00,00,00,00,00
8752683,00000005,false,Rx,0,0,00,00,00,00,00,00,00,00
8772677,00000017,false,Rx,0,8,20,FF,11,00,00,FF,FF,FC
8782693,00000022,false,Rx,0,5,F7,52,28,9B,02,00,00,00
8792687,00000009,false,Rx,0,8,20,40,32,03,03,01,FA,FA
8802678,0000003C,false,Rx,0,8,14,03,22,6C,1F,FF,FF,FF
8812665,00000018,false,Rx,0,8,00,00,E0,59,7D,08,20,FC
8822679,00000034,false,Rx,0,0,00,00,00,00,00,00,00,00
8832682,00000029,false,Rx,0,8,A5,2A,F2,FD,80,50,23,00
8852660,00000006,false,Rx,0,0,00,00,00,00,00,00,00,00
8862657,0000003D,false,Rx,0,8,14,10,10,62,6C,1F,47,33
8872697,00000005,false,Rx,0,0,00,00,00,00,00,00,00,00
8902682,00000022,false,Rx,0,5,F7,52,28,9C,02,00,00,00
8912679,00000009,false,Rx,0,8,20,40,32,03,03,01,FA,FA
8942670,0000003D,false,Rx,0,8,14,21,39,35,20,70,54,2D
8952700,00000029,false,Rx,0,8,A5,2A,F2,FD,80,50,23,00
8972665,00000006,false,Rx,0,0,00,00,00,00,00,00,00,00
8982695,0000003D,false,Rx,0,8,14,22,53,65,6E,73,31,FF
8992688,00000005,false,Rx,0,0,00,00,00,00,00,00,00,00
9012683,00000017,false,Rx,0,8,20,FF,11,00,00,FF,FF,FC
9022667,00000022,false,Rx,0,5,F7,52,28,9B,02,00,00,00
9032690,00000009,false,Rx,0,8,20,40,32,03,03,01,FA,FA
9042671,00000018,false,Rx,0,8,00,00,E0,59,7D,08,20,FC
9052691,00000033,false,Rx,0,4,00,C0,00,03,00,00,00,00
9062698,00000029,false,Rx,0,8,A5,2A,F2,FD,80,50,23,00
9082666,0000003C,false,Rx,0,8,14,03,22,6E,1F,FF,FF,FF
9092666,00000006,false,Rx,0,0,00,00,00,00,00,00,00,00
9102680,00000005,false,Rx,0,0,00,00,00,00,00,00,00,00
9132684,00000022,false,Rx,0,5,F7,52,28,9B,02,00,00,00
9142681,0000003D,false,Rx,0,8,14,03,7F,22,31,FF,FF,FF
9152705,00000009,false,Rx,0,8,20,40,32,03,03,01,FA,FA
9182693,00000029,false,Rx,0,8,A5,2A,F2,FD,80,50,23,00
9202671,00000006,false,Rx,0,0,00,00,00,00,00,00,00,00
9212678,00000005,false,Rx,0,0,00,00,00,00,00,00,00,00
9232679,00000017,false,Rx,0,8,20,FF,11,00,00,FF,FF,FC
9242698,0000003C,false,Rx,0,8,14,03,22,F1,7C,FF,FF,FF
9252680,00000022,false,Rx,0,5,F7,52,28,9C,02,00,00,00
9262693,00000009,false,Rx,0,8,20,40,32,03,03,01,FA,FA
9272687,00000018,false,Rx,0,8,00,00,E0,5A,7D,08,20,FC
9282677,00000034,false,Rx,0,0,00,00,00,00,00,00,00,00
9292688,00000029,false,Rx,0,8,A5,2A,F2,FD,80,50,23,00
9312675,0000003D,false,Rx,0,8,14,03,7F,22,31,FF,FF,FF
9322692,00000006,false,Rx,0,0,00,00,00,00,00,00,00,00
9332666,00000005,false,Rx,0,0,00,00,00,00,00,00,00,00
9362671,00000022,false,Rx,0,5,F7,52,28,9C,02,00,00,00
9372684,00000009,false,Rx,0,8,20,40,32,03,03,01,FA,FA
9402679,00000029,false,Rx,0,8,A5,2A,F2,FD,80,50,23,00
9422676,00000006,false,Rx,0,0,00,00,00,00,00,00,00,00
9432686,00000005,false,Rx,0,0,00,00,00,00,00,00,00,00
9452687,00000017,false,Rx,0,8,20,FF,11,00,00,FF,FF,FC
9462685,00000022,false,Rx,0,5,F7,52,28,9C,02,00,00,00
9472695,00000009,false,Rx,0,8,20,40,32,03,03,01,FA,FA
9482682,00000018,false,Rx,0,8,00,00,E0,5A,7D,08,20,FC
9492689,00000033,false,Rx,0,4,00,C0,00,03,00,00,00,00
9502692,00000029,false,Rx,0,8,A5,2A,F2,FD,80,50,23,00
9522674,00000006,false,Rx,0,0,00,00,00,00,00,00,00,00
9532684,00000005,false,Rx,0,0,00,00,00,00,00,00,00,00
9562672,00000022,false,Rx,0,5,F7,52,28,9C,02,00,00,00
9572692,00000009,false,Rx,0,8,20,40,32,03,03,01,FA,FA
9602683,00000029,false,Rx,0,8,A5,2A,F2,FD,80,50,23,00
9622674,00000006,false,Rx,0,0,00,00,00,00,00,00,00,00
9632685,00000005,false,Rx,0,0,00,00,00,00,00,00,00,00
9652689,00000017,false,Rx,0,8,20,FF,11,00,00,FF,FF,FC
9662682,00000022,false,Rx,0,5,F6,52,28,9B,02,00,00,00
9672693,00000009,false,Rx,0,8,20,40,32,03,03,01,FA,FA
9682683,00000018,false,Rx,0,8,00,00,E0,5A,7D,08,20,FC
9692690,00000034,false,Rx,0,0,00,00,00,00,00,00,00,00
9702697,00000029,false,Rx,0,8,A5,2A,F2,FD,80,50,23,00
9722685,00000006,false,Rx,0,0,00,00,00,00,00,00,00,00
9732689,00000005,false,Rx,0,0,00,00,00,00,00,00,00,00
9762677,00000022,false,Rx,0,5,F6,52,28,9C,02,00,00,00
9772703,00000009,false,Rx,0,8,20,40,32,03,03,01,FA,FA
9802675,00000029,false,Rx,0,8,A5,2A,F2,FD,80,50,23,00
9822686,00000006,false,Rx,0,0,00,00,00,00,00,00,00,00
9832689,00000005,false,Rx,0,0,00,00,00,00,00,00,00,00
9852684,00000017,false,Rx,0,8,20,FF,11,00,00,FF,FF,FC
9862677,00000022,false,Rx,0,5,F6,62,28,9C,02,00,00,00
9872720,00000009,false,Rx,0,8,20,40,32,03,03,01,FA,FA
9882681,00000018,false,Rx,0,8,00,00,E0,5A,7D,08,20,FC
9892701,00000033,false,Rx,0,4,00,C0,00,03,00,00,00,00
9902695,00000029,false,Rx,0,8,A5,2A,F2,FD,80,50,23,00
9922680,00000006,false,Rx,0,0,00,00,00,00,00,00,00,00
9932693,00000005,false,Rx,0,0,00,00,00,00,00,00,00,00
9962688,00000022,false,Rx,0,5,F7,52,28,9B,02,00,00,00
9972695,00000009,false,Rx,0,8,20,40,32,03,03,01,FA,FA
10002690,00000029,false,Rx,0,8,A5,2A,F2,FD,80,50,23,00
10022687,00000006,false,Rx,0,0,00,00,00,00,00,00,00,00
10032681,00000005,false,Rx,0,0,00,00,00,00,00,00,00,00
10052691,00000017,false,Rx,0,8,20,FF,11,00,00,FF,FF,FC
10062692,00000022,false,Rx,0,5,F6,52,28,9C,02,00,00,00
10072705,00000009,false,Rx,0,8,20,40,32,03,03,01,FA,FA
10082683,00000018,false,Rx,0,8,00,00,E0,59,7D,08,20,FC
10092696,00000034,false,Rx,0,0,00,00,00,00,00,00,00,00
10102697,00000029,false,Rx,0,8,A5,2A,F2,FD,80,50,23,00
10122685,00000006,false,Rx,0,0,00,00,00,00,00,00,00,00
10132698,00000005,false,Rx,0,0,00,00,00,00,00,00,00,00
10162689,00000022,false,Rx,0,5,F6,52,28,9C,02,00,00,00
10172703,00000009,false,Rx,0,8,20,40,32,03,03,01,FA,FA
10202701,00000029,false,Rx,0,8,A5,2A,F2,FD,80,50,23,00
10222692,00000006,false,Rx,0,0,00,00,00,00,00,00,00,00
10232689,00000005,false,Rx,0,0,00,00,00,00,00,00,00,00
10252700,00000017,false,Rx,0,8,20,FF,11,00,00,FF,FF,FC
10262693,00000022,false,Rx,0,5,F6,52,28,9C,02,00,00,00
10272694,00000009,false,Rx,0,8,20,40,32,03,03,01,FA,FA
10282678,00000018,false,Rx,0,8,00,00,E0,5A,7D,08,20,FC
10292701,00000033,false,Rx,0,4,00,C0,00,03,00,00,00,00
10302705,00000029,false,Rx,0,8,A5,2A,F2,FD,80,50,23,00
10322686,00000006,false,Rx,0,0,00,00,00,00,00,00,00,00
10332686,00000005,false,Rx,0,0,00,00,00,00,00,00,00,00
10362687,00000022,false,Rx,0,5,F6,52,28,9C,02,00,00,00
10372707,00000009,false,Rx,0,8,20,40,32,03,03,01,FA,FA
10402696,00000029,false,Rx,0,8,A5,2A,F2,FD,80,50,23,00
10422696,00000006,false,Rx,0,0,00,00,00,00,00,00,00,00
10432700,00000005,false,Rx,0,0,00,00,00,00,00,00,00,00
10452694,00000017,false,Rx,0,8,20,FF,11,00,00,FF,FF,FC
10462698,00000022,false,Rx,0,5,F6,52,28,9C,02,00,00,00
10472702,00000009,false,Rx,0,8,20,40,32,03,03,01,FA,FA
10482692,00000018,false,Rx,0,8,00,00,E0,5A,7D,08,20,FC
10492702,00000034,false,Rx,0,0,00,00,00,00,00,00,00,00
10502706,00000029,false,Rx,0,8,A5,2A,F2,FD,80,50,23,00
10522684,00000006,false,Rx,0,0,00,00,00,00,00,00,00,00
10532701,00000005,false,Rx,0,0,00,00,00,00,00,00,00,00
10562689,00000022,false,Rx,0,5,F6,52,28,9C,02,00,00,00
10572709,00000009,false,Rx,0,8,20,40,32,03,03,01,FA,FA
10602704,00000029,false,Rx,0,8,A5,2A,F2,FD,80,50,23,00
10622711,00000006,false,Rx,0,0,00,00,00,00,00,00,00,00
10632698,00000005,false,Rx,0,0,00,00,00,00,00,00,00,00
10652712,00000017,false,Rx,0,8,20,FF,11,00,00,FF,FF,FC
10662699,00000022,false,Rx,0,5,F6,62,28,9C,02,00,00,00
10672713,00000009,false,Rx,0,8,20,40,32,03,03,01,FA,FA
10682700,00000018,false,Rx,0,8,00,00,E0,5A,7D,08,20,FC
10692717,00000033,false,Rx,0,4,00,C0,00,03,00,00,00,00
10702701,00000029,false,Rx,0,8,A5,2A,F2,FD,80,50,23,00
10722692,00000006,false,Rx,0,0,00,00,00,00,00,00,00,00
10732702,00000005,false,Rx,0,0,00,00,00,00,00,00,00,00
10762697,00000022,false,Rx,0,5,F6,52,28,9C,02,00,00,00
10772707,00000009,false,Rx,0,8,20,40,32,03,03,01,FA,FA
10802698,00000029,false,Rx,0,8,A5,2A,F2,FD,80,50,23,00
10822699,00000006,false,Rx,0,0,00,00,00,00,00,00,00,00
10832703,00000005,false,Rx,0,0,00,00,00,00,00,00,00,00
10852707,00000017,false,Rx,0,8,20,FF,11,00,00,FF,FF,FC
10862707,00000022,false,Rx,0,5,F6,52,28,9B,02,00,00,00
10872708,00000009,false,Rx,0,8,20,40,32,03,03,01,FA,FA
10882708,00000018,false,Rx,0,8,00,00,E0,5A,7D,08,20,FC
10892702,00000034,false,Rx,0,0,00,00,00,00,00,00,00,00
10902728,00000029,false,Rx,0,8,A5,2A,F2,FD,80,50,23,00
10922693,00000006,false,Rx,0,0,00,00,00,00,00,00,00,00
10932707,00000005,false,Rx,0,0,00,00,00,00,00,00,00,00
10962698,00000022,false,Rx,0,5,F6,62,28,9C,02,00,00,00
10972705,00000009,false,Rx,0,8,20,40,32,03,03,01,FA,FA
11002713,00000029,false,Rx,0,8,A5,2A,F2,FD,80,50,23,00
11022694,00000006,false,Rx,0,0,00,00,00,00,00,00,00,00
11032704,00000005,false,Rx,0,0,00,00,00,00,00,00,00,00
11052712,00000017,false,Rx,0,8,20,FF,11,00,00,FF,FF,FC
11062718,00000022,false,Rx,0,5,F6,52,28,9C,02,00,00,00
11072715,00000009,false,Rx,0,8,20,40,32,03,03,01,FA,FA
11082703,00000018,false,Rx,0,8,00,00,E0,5A,7D,08,20,FC
11092716,00000033,false,Rx,0,4,00,C1,00,03,00,00,00,00
11102713,00000029,false,Rx,0,8,A5,2A,F2,FD,80,50,23,00
11122704,00000006,false,Rx,0,0,00,00,00,00,00,00,00,00
11132711,00000005,false,Rx,0,0,00,00,00,00,00,00,00,00
11162706,00000022,false,Rx,0,5,F6,52,28,9C,02,00,00,00
11172713,00000009,false,Rx,0,8,20,40,32,03,03,01,FA,FA
11202701,00000029,false,Rx,0,8,A5,2A,F2,FD,80,50,23,00
11222695,00000006,false,Rx,0,0,00,00,00,00,00,00,00,00
11232731,00000005,false,Rx,0,0,00,00,00,00,00,00,00,00
11252706,00000017,false,Rx,0,8,20,FF,11,00,00,FF,FF,FC
11262700,00000022,false,Rx,0,5,F6,62,28,9C,02,00,00,00
11272710,00000009,false,Rx,0,8,20,40,32,03,03,01,FA,FA
11282714,00000018,false,Rx,0,8,00,00,E0,5A,7D,08,20,FC
11292714,00000034,false,Rx,0,0,00,00,00,00,00,00,00,00
11302718,00000029,false,Rx,0,8,A5,2A,F2,FD,80,50,23,00
11322709,00000006,false,Rx,0,0,00,00,00,00,00,00,00,00
11332703,00000005,false,Rx,0,0,00,00,00,00,00,00,00,00
11362707,00000022,false,Rx,0,5,F6,52,28,9C,02,00,00,00
11372721,00000009,false,Rx,0,8,20,40,32,03,03,01,FA,FA
11402709,00000029,false,Rx,0,8,A5,2A,F2,FD,80,50,23,00
11422723,00000006,false,Rx,0,0,00,00,00,00,00,00,00,00
11432710,00000005,false,Rx,0,0,00,00,00,00,00,00,00,00
11452708,00000017,false,Rx,0,8,20,FF,11,00,00,FF,FF,FC
11462715,00000022,false,Rx,0,5,F6,52,28,9C,02,00,00,00
11472725,00000009,false,Rx,0,8,20,40,32,03,03,01,FA,FA
11482703,00000018,false,Rx,0,8,00,00,E0,5A,7D,08,20,FC
11492725,00000033,false,Rx,0,4,00,C1,00,03,00,00,00,00
11502713,00000029,false,Rx,0,8,A5,2A,F2,FD,80,50,23,00
11522704,00000006,false,Rx,0,0,00,00,00,00,00,00,00,00
11532714,00000005,false,Rx,0,0,00,00,00,00,00,00,00,00
11562709,00000022,false,Rx,0,5,F5,52,28,9C,02,00,00,00
11572726,00000009,false,Rx,0,8,20,40,32,03,03,01,FA,FA
11602720,00000029,false,Rx,0,8,A5,2A,F2,FD,80,50,23,00
11622711,00000006,false,Rx,0,0,00,00,00,00,00,00,00,00
11632708,00000005,false,Rx,0,0,00,00,00,00,00,00,00,00
11652719,00000017,false,Rx,0,8,20,FF,11,00,00,FF,FF,FC
11662713,00000022,false,Rx,0,5,F6,52,28,9C,02,00,00,00
11672716,00000009,false,Rx,0,8,20,40,32,03,03,01,FA,FA
11682698,00000018,false,Rx,0,8,00,00,E0,5A,7D,08,20,FC
11692711,00000034,false,Rx,0,0,00,00,00,00,00,00,00,00
11702740,00000029,false,Rx,0,8,A5,2A,F2,FD,80,50,23,00
11722705,00000006,false,Rx,0,0,00,00,00,00,00,00,00,00
11732709,00000005,false,Rx,0,0,00,00,00,00,00,00,00,00
11762710,00000022,false,Rx,0,5,F6,52,28,9C,02,00,00,00
11772727,00000009,false,Rx,0,8,20,40,32,03,03,01,FA,FA
11802715,00000029,false,Rx,0,8,A5,2A,F2,FD,80,50,23,00
11822716,00000006,false,Rx,0,0,00,00,00,00,00,00,00,00
11832720,00000005,false,Rx,0,0,00,00,00,00,00,00,00,00
11852717,00000017,false,Rx,0,8,20,FF,11,00,00,FF,FF,FC
11862740,00000022,false,Rx,0,5,F6,52,28,9C,02,00,00,00
11872721,00000009,false,Rx,0,8,20,40,32,03,03,01,FA,FA
11882715,00000018,false,Rx,0,8,00,00,E0,5A,7D,08,20,FC
11892732,00000033,false,Rx,0,4,00,C1,00,03,00,00,00,00
11902713,00000029,false,Rx,0,8,A5,2A,F2,FD,80,50,23,00
11922717,00000006,false,Rx,0,0,00,00,00,00,00,00,00,00
11932720,00000005,false,Rx,0,0,00,00,00,00,00,00,00,00
11962708,00000022,false,Rx,0,5,F6,62,28,9C,02,00,00,00
11972725,00000009,false,Rx,0,8,20,40,32,03,03,01,FA,FA
12002723,00000029,false,Rx,0,8,A5,2A,F2,FD,80,50,23,00
12022730,00000006,false,Rx,0,0,00,00,00,00,00,00,00,00
12032721,00000005,false,Rx,0,0,00,00,00,00,00,00,00,00
12052728,00000017,false,Rx,0,8,20,FF,11,00,00,FF,FF,FC
12062722,00000022,false,Rx,0,5,F6,52,28,9C,02,00,00,00
12072733,00000009,false,Rx,0,8,20,40,32,03,03,01,FA,FA
12082720,00000018,false,Rx,0,8,00,00,E0,5A,7D,08,20,FC
12092720,00000034,false,Rx,0,0,00,00,00,00,00,00,00,00
12102727,00000029,false,Rx,0,8,A5,2A,F2,FD,80,50,23,00
12122712,00000006,false,Rx,0,0,00,00,00,00,00,00,00,00
12132712,00000005,false,Rx,0,0,00,00,00,00,00,00,00,00
12162720,00000022,false,Rx,0,5,F6,52,28,9C,02,00,00,00
12172726,00000009,false,Rx,0,8,20,40,32,03,03,01,FA,FA
12202718,00000029,false,Rx,0,8,A5,2A,F2,FD,80,50,23,00
12222719,00000006,false,Rx,0,0,00,00,00,00,00,00,00,00
12232722,00000005,false,Rx,0,0,00,00,00,00,00,00,00,00
12252723,00000017,false,Rx,0,8,20,FF,11,00,00,FF,FF,FC
12262730,00000022,false,Rx,0,5,F6,52,28,9C,02,00,00,00
12272734,00000009,false,Rx,0,8,20,40,32,03,03,01,FA,FA
12282724,00000018,false,Rx,0,8,00,00,E0,5A,7D,08,20,FC
12292738,00000033,false,Rx,0,4,00,C1,00,03,00,00,00,00
12302725,00000029,false,Rx,0,8,A5,2A,F2,FD,80,50,23,00
12322713,00000006,false,Rx,0,0,00,00,00,00,00,00,00,00
12332726,00000005,false,Rx,0,0,00,00,00,00,00,00,00,00
12362708,00000022,false,Rx,0,5,F6,62,28,9C,02,00,00,00
12372728,00000009,false,Rx,0,8,20,40,32,03,03,01,FA,FA
12402749,00000029,false,Rx,0,8,A5,2A,F2,FD,80,50,23,00
12422720,00000006,false,Rx,0,0,00,00,00,00,00,00,00,00
12432720,00000005,false,Rx,0,0,00,00,00,00,00,00,00,00
12452731,00000017,false,Rx,0,8,20,FF,11,00,00,FF,FF,FC
12462735,00000022,false,Rx,0,5,F6,62,28,9C,02,00,00,00
12472738,00000009,false,Rx,0,8,20,40,32,03,03,01,FA,FA
12482723,00000018,false,Rx,0,8,00,00,E0,5A,7D,08,20,FC
12492730,00000034,false,Rx,0,0,00,00,00,00,00,00,00,00
12502743,00000029,false,Rx,0,8,A5,2A,F2,FD,80,50,23,00
12522744,00000006,false,Rx,0,0,00,00,00,00,00,00,00,00
12532731,00000005,false,Rx,0,0,00,00,00,00,00,00,00,00
12562716,00000022,false,Rx,0,5,F5,52,28,9C,02,00,00,00
12572739,00000009,false,Rx,0,8,20,40,32,03,03,01,FA,FA
12602717,00000029,false,Rx,0,8,A5,2A,F2,FD,80,50,23,00
12622728,00000006,false,Rx,0,0,00,00,00,00,00,00,00,00
12632732,00000005,false,Rx,0,0,00,00,00,00,00,00,00,00
12652726,00000017,false,Rx,0,8,20,FF,11,00,00,FF,FF,FC
12662720,00000022,false,Rx,0,5,F6,62,28,9C,02,00,00,00
12672756,00000009,false,Rx,0,8,20,40,32,03,03,01,FA,FA
12682727,00000018,false,Rx,0,8,00,00,E0,5A,7D,08,20,FC
12692744,00000033,false,Rx,0,4,00,C1,00,03,00,00,00,00
12702735,00000029,false,Rx,0,8,A5,2A,F2,FD,80,50,23,00
12722719,00000006,false,Rx,0,0,00,00,00,00,00,00,00,00
12732739,00000005,false,Rx,0,0,00,00,00,00,00,00,00,00
12762727,00000022,false,Rx,0,5,F6,52,28,9C,02,00,00,00
12772737,00000009,false,Rx,0,8,20,40,32,03,03,01,FA,FA
12802735,00000029,false,Rx,0,8,A5,2A,F2,FD,80,50,23,00
12822743,00000006,false,Rx,0,0,00,00,00,00,00,00,00,00
12832720,00000005,false,Rx,0,0,00,00,00,00,00,00,00,00
12852741,00000017,false,Rx,0,8,20,FF,11,00,00,FF,FF,FC
12862731,00000022,false,Rx,0,5,F6,52,28,9C,02,00,00,00
12872738,00000009,false,Rx,0,8,20,40,32,03,03,01,FA,FA
12882742,00000018,false,Rx,0,8,00,00,E0,5A,7D,08,20,FC
12892739,00000034,false,Rx,0,0,00,00,00,00,00,00,00,00
12902736,00000029,false,Rx,0,8,A5,2A,F2,FD,80,50,23,00
12922727,00000006,false,Rx,0,0,00,00,00,00,00,00,00,00
12932734,00000005,false,Rx,0,0,00,00,00,00,00,00,00,00
12962729,00000022,false,Rx,0,5,F6,52,28,9C,02,00,00,00
12972752,00000009,false,Rx,0,8,20,40,32,03,03,01,FA,FA
13002740,00000029,false,Rx,0,8,A5,2A,F2,FD,80,50,23,00
13022724,00000006,false,Rx,0,0,00,00,00,00,00,00,00,00
13032738,00000005,false,Rx,0,0,00,00,00,00,00,00,00,00
13052739,00000017,false,Rx,0,8,20,FF,11,00,00,FF,FF,FC
13062723,00000022,false,Rx,0,5,F6,62,28,9C,02,00,00,00
13072730,00000009,false,Rx,0,8,20,40,32,03,03,01,FA,FA
13082733,00000018,false,Rx,0,8,00,00,E0,5A,7D,08,20,FC
13092744,00000033,false,Rx,0,4,00,C1,00,03,00,00,00,00
13102767,00000029,false,Rx,0,8,A5,2A,F2,FD,80,50,23,00
13122725,00000006,false,Rx,0,0,00,00,00,00,00,00,00,00
13132729,00000005,false,Rx,0,0,00,00,00,00,00,00,00,00
13162730,00000022,false,Rx,0,5,F6,52,28,9C,02,00,00,00
13172753,00000009,false,Rx,0,8,20,40,32,03,03,01,FA,FA
13202745,00000029,false,Rx,0,8,A5,2A,F2,FD,80,50,23,00
13222736,00000006,false,Rx,0,0,00,00,00,00,00,00,00,00
13232733,00000005,false,Rx,0,0,00,00,00,00,00,00,00,00
13252737,00000017,false,Rx,0,8,20,FF,11,00,00,FF,FF,FC
13262750,00000022,false,Rx,0,5,F6,52,28,9C,02,00,00,00
13272747,00000009,false,Rx,0,8,20,40,32,03,03,01,FA,FA
13282735,00000018,false,Rx,0,8,00,00,E0,5A,7D,08,20,FC
13292732,00000034,false,Rx,0,0,00,00,00,00,00,00,00,00
13302739,00000029,false,Rx,0,8,A5,2A,F2,FD,80,50,23,00
13322753,00000006,false,Rx,0,0,00,00,00,00,00,00,00,00
13332740,00000005,false,Rx,0,0,00,00,00,00,00,00,00,00
13362731,00000022,false,Rx,0,5,F6,52,28,9C,02,00,00,00
13372751,00000009,false,Rx,0,8,20,40,32,03,03,01,FA,FA
13402743,00000029,false,Rx,0,8,A5,2A,F2,FD,80,50,23,00
13422737,00000006,false,Rx,0,0,00,00,00,00,00,00,00,00
13432741,00000005,false,Rx,0,0,00,00,00,00,00,00,00,00
13452748,00000017,false,Rx,0,8,20,FF,11,00,00,FF,FF,FC
13462742,00000022,false,Rx,0,5,F6,52,28,9C,02,00,00,00
13472755,00000009,false,Rx,0,8,20,40,32,03,03,01,FA,FA
13482742,00000018,false,Rx,0,8,00,00,E0,5A,7D,08,20,FC
13492750,00000033,false,Rx,0,4,00,C1,00,03,00,00,00,00
13502756,00000029,false,Rx,0,8,A5,2A,F2,FD,80,50,23,00
13522738,00000006,false,Rx,0,0,00,00,00,00,00,00,00,00
13532732,00000005,false,Rx,0,0,00,00,00,00,00,00,00,00
13562739,00000022,false,Rx,0,5,F7,52,28,9C,02,00,00,00
13572746,00000009,false,Rx,0,8,20,40,32,03,03,01,FA,FA
13602741,00000029,false,Rx,0,8,A5,2A,F2,FD,80,50,23,00
13622738,00000006,false,Rx,0,0,00,00,00,00,00,00,00,00
13632745,00000005,false,Rx,0,0,00,00,00,00,00,00,00,00
13652743,00000017,false,Rx,0,8,20,FF,11,00,00,FF,FF,FC
13662756,00000022,false,Rx,0,5,F7,52,28,9C,02,00,00,00
13672763,00000009,false,Rx,0,8,20,40,32,03,03,01,FA,FA
13682744,00000018,false,Rx,0,8,00,00,E0,5A,7D,08,20,FC
13692751,00000034,false,Rx,0,0,00,00,00,00,00,00,00,00
13702745,00000029,false,Rx,0,8,A5,2A,F2,FD,80,50,23,00
13722733,00000006,false,Rx,0,0,00,00,00,00,00,00,00,00
13732746,00000005,false,Rx,0,0,00,00,00,00,00,00,00,00
13762737,00000022,false,Rx,0,5,F6,52,28,9D,02,00,00,00
13772751,00000009,false,Rx,0,8,20,40,32,03,03,01,FA,FA
13802742,00000029,false,Rx,0,8,A5,2A,F2,FD,80,50,23,00
13822756,00000006,false,Rx,0,0,00,00,00,00,00,00,00,00
13832744,00000005,false,Rx,0,0,00,00,00,00,00,00,00,00
13852751,00000017,false,Rx,0,8,20,FF,11,00,00,FF,FF,FC
13862745,00000022,false,Rx,0,5,F6,52,28,9C,02,00,00,00
13872755,00000009,false,Rx,0,8,20,40,32,03,03,01,FA,FA
