"Time Stamp",ID,Extended,Dir,Bus,LEN,D1,D2,D3,D4,D5,D6,D7,D8
82746106,00000024,false,Rx,0,5,31,FA,2F,22,82,00,00,00
12823657,00000020,false,Rx,0,6,00,40,0B,00,E0,FF,00,00
12833657,00000020,false,Rx,0,6,00,40,0B,00,E0,FF,00,00
12843658,00000026,false,Rx,0,8,39,C4,00,00,00,AA,90,01
12853658,0000000A,false,Rx,0,6,94,00,0A,2E,FE,FF,00,00
12863658,0000000E,false,Rx,0,8,FE,FD,00,FF,DA,3F,00,FF
12873659,0000002A,false,Rx,0,8,D2,F6,FF,FF,17,00,4C,FF
12883653,0000000B,false,Rx,0,8,00,28,FE,FE,FE,31,00,E8
12893657,00000013,false,Rx,0,8,FE,FE,1F,07,FE,FE,00,FF
12903657,00000024,false,Rx,0,5,AA,F9,2F,22,0A,00,00,00
12933658,00000020,false,Rx,0,6,00,40,0B,00,E0,FF,00,00
12943662,00000026,false,Rx,0,8,39,C4,00,00,00,AA,90,01
12953653,00000010,false,Rx,0,8,CE,01,00,01,00,00,00,32
12973650,0000002B,false,Rx,0,8,00,00,00,00,FE,7A,0B,FE
12983660,0000000B,false,Rx,0,8,01,A0,FE,FE,FE,31,00,E8
12993658,00000013,false,Rx,0,8,FE,FE,1F,07,FE,FE,00,FF
13003661,00000024,false,Rx,0,5,AA,F9,2F,22,0A,00,00,00
13013665,00000036,false,Rx,0,8,C9,09,00,AA,FF,C0,1B,E0
13023652,0000002E,false,Rx,0,8,00,FC,FF,FF,FF,FF,FF,FF
13033669,00000020,false,Rx,0,6,00,40,0B,00,E0,FF,00,00
13043663,00000026,false,Rx,0,8,39,C4,00,00,00,AA,00,00
13053663,0000000A,false,Rx,0,6,94,00,0A,2E,FE,FF,00,00
13063653,00000014,false,Rx,0,0,00,00,00,00,00,00,00,00
13073663,0000002A,false,Rx,0,8,D2,F6,FF,FF,17,00,4C,FF
13083654,0000000B,false,Rx,0,8,AA,AA,FE,FE,FE,31,00,E8
13093662,00000013,false,Rx,0,8,FE,FE,1F,07,FE,FE,00,FF
13103662,00000024,false,Rx,0,5,A7,F9,2F,22,0D,00,00,00
13123653,00000028,false,Rx,0,0,00,00,00,00,00,00,00,00
13133663,00000020,false,Rx,0,6,00,40,0B,00,E0,FF,00,00
13143664,00000026,false,Rx,0,8,39,C4,00,00,00,AA,00,00
13153655,00000010,false,Rx,0,8,CE,01,00,01,00,00,00,32
13163662,00000007,false,Rx,0,0,00,00,00,00,00,00,00,00
13173659,0000002B,false,Rx,0,8,00,00,00,00,FE,79,0B,FE
13183662,0000000B,false,Rx,0,8,0B,02,FE,FE,FE,31,00,E8
13193663,00000013,false,Rx,0,8,FE,FE,1F,07,FE,FE,00,FF
13203663,00000024,false,Rx,0,5,A9,F9,2F,22,0B,00,00,00
13213660,00000037,false,Rx,0,7,FF,2F,00,64,8A,9D,48,00
13223664,0000002E,false,Rx,0,8,00,FC,FF,FF,FF,FF,FF,FF
13233671,00000020,false,Rx,0,6,00,40,0B,00,E0,FF,00,00
13243665,00000026,false,Rx,0,8,39,C4,00,00,00,AA,00,00
13253665,0000000A,false,Rx,0,6,94,00,0A,2E,FE,FF,00,00
13263666,0000000E,false,Rx,0,8,FE,FD,00,FF,DA,3F,00,FF
13273666,0000002A,false,Rx,0,8,D2,F6,FF,FF,17,00,4C,FF
13283660,0000000B,false,Rx,0,8,00,28,FE,FE,FE,31,00,E8
13293664,00000013,false,Rx,0,8,FE,FE,1F,07,FE,FE,00,FF
13303664,00000024,false,Rx,0,5,AA,F9,2F,22,0A,00,00,00
13333666,00000020,false,Rx,0,6,00,40,0B,00,E0,FF,00,00
13343669,00000026,false,Rx,0,8,39,C4,00,00,00,AA,00,00
13353660,00000010,false,Rx,0,8,CE,01,00,01,00,00,00,32
13373658,0000002B,false,Rx,0,8,00,00,00,00,FE,7A,0B,FE
13383668,0000000B,false,Rx,0,8,01,A0,FE,FE,FE,31,00,EC
13393665,00000013,false,Rx,0,8,FE,FE,1F,07,FE,FE,00,FF
13403665,00000024,false,Rx,0,5,AA,F9,2F,22,0A,00,00,00
13413672,00000036,false,Rx,0,8,C9,09,00,AA,FF,C0,1B,E0
13423663,0000002E,false,Rx,0,8,00,FC,FF,FF,FF,FF,FF,FF
13433676,00000020,false,Rx,0,6,00,44,0B,00,E0,FF,00,00
13443670,00000026,false,Rx,0,8,39,C4,00,00,00,AA,00,00
13453671,0000000A,false,Rx,0,6,94,00,0A,2E,FE,FF,00,00
13463661,00000014,false,Rx,0,0,00,00,00,00,00,00,00,00
13473672,0000002A,false,Rx,0,8,D2,F6,FF,FF,17,00,4C,FF
13483662,0000000B,false,Rx,0,8,AA,AA,FE,FE,FE,31,00,EC
13493669,00000013,false,Rx,0,8,FE,FE,1F,07,FE,FE,00,FF
13503667,00000024,false,Rx,0,5,AA,F9,2F,22,0A,00,00,00
13523661,00000028,false,Rx,0,0,00,00,00,00,00,00,00,00
13533672,00000020,false,Rx,0,6,00,44,0B,00,E0,FF,00,00
13543672,00000026,false,Rx,0,8,39,C5,00,00,00,AA,00,00
13553663,00000010,false,Rx,0,8,CE,01,00,01,00,00,00,32
13563670,00000007,false,Rx,0,0,00,00,00,00,00,00,00,00
13573667,0000002B,false,Rx,0,8,00,00,00,00,FE,88,0B,FE
13583671,0000000B,false,Rx,0,8,4B,16,55,00,CA,30,00,0C
13593671,00000013,false,Rx,0,8,FE,FE,18,07,FE,FE,00,FF
13603672,00000024,false,Rx,0,5,AA,F9,2F,22,0A,00,00,00
13613669,00000037,false,Rx,0,8,FF,2F,00,64,8A,A1,0D,48
13623673,0000002E,false,Rx,0,8,00,FC,FF,FF,FF,FF,FF,FF
13633679,00000020,false,Rx,0,6,00,44,0B,00,E0,FF,00,00
13643673,00000026,false,Rx,0,8,39,C5,00,00,00,AA,00,00
13653674,0000000A,false,Rx,0,6,94,00,0A,2E,FE,FF,00,00
13663674,0000000E,false,Rx,0,8,FE,FD,00,FF,DA,3F,00,FF
13673675,0000002A,false,Rx,0,8,D2,F6,FF,FF,17,00,4C,FF
13683669,0000000B,false,Rx,0,8,54,69,54,00,CA,30,00,0C
13693672,00000013,false,Rx,0,8,FE,FE,18,07,FE,FE,00,FF
13703673,00000024,false,Rx,0,5,A9,F9,2F,22,0B,00,00,00
13733674,00000020,false,Rx,0,6,00,44,0B,00,E0,FF,00,00
13743678,00000026,false,Rx,0,8,39,C5,00,00,00,AA,00,00
13753668,00000010,false,Rx,0,8,CE,01,00,01,00,00,00,32
13773666,0000002B,false,Rx,0,8,00,00,00,00,FE,88,0B,FE
13783676,0000000B,false,Rx,0,8,55,A5,55,00,CA,30,00,0C
13793673,00000013,false,Rx,0,8,FE,FE,18,07,FE,FE,00,FF
13803674,00000024,false,Rx,0,5,A9,F9,2F,22,0B,00,00,00
13813681,00000036,false,Rx,0,8,C9,09,00,AA,FF,C0,1B,E0
13823668,0000002E,false,Rx,0,8,00,FC,FF,FF,FF,FF,FF,FF
13833682,00000020,false,Rx,0,6,00,44,0B,00,E0,FF,00,00
13843679,00000026,false,Rx,0,8,39,C5,00,00,00,AA,00,00
13853676,0000000A,false,Rx,0,6,94,00,0A,2E,FE,FF,00,00
13863670,00000014,false,Rx,0,0,00,00,00,00,00,00,00,00
13873680,0000002A,false,Rx,0,8,D2,F6,FF,FF,17,00,4C,FF
13883671,0000000B,false,Rx,0,7,AA,AA,54,00,30,00,0C,00
13893674,00000013,false,Rx,0,8,00,D0,00,07,A1,56,00,FF
13903675,00000024,false,Rx,0,5,AA,F9,2F,22,0A,00,00,00
13923669,00000028,false,Rx,0,0,00,00,00,00,00,00,00,00
13933679,00000020,false,Rx,0,6,00,44,0B,00,E0,FF,00,00
13943680,00000026,false,Rx,0,8,39,C5,00,00,00,AA,00,00
13953671,00000010,false,Rx,0,8,CE,01,00,01,00,00,40,32
13963677,00000007,false,Rx,0,0,00,00,00,00,00,00,00,00
13973675,0000002B,false,Rx,0,8,00,00,00,00,FE,89,0B,FE
13983678,0000000B,false,Rx,0,8,4B,16,55,00,CA,30,00,0C
13993679,00000013,false,Rx,0,8,00,D0,00,07,A1,56,00,FF
14003679,00000024,false,Rx,0,5,AA,F9,2F,22,0A,00,00,00
14013676,00000037,false,Rx,0,8,FF,2F,02,64,89,A5,0D,48
14023680,0000002E,false,Rx,0,8,00,FC,FF,FF,FF,FF,FF,FF
14033687,00000020,false,Rx,0,6,00,44,0B,00,E0,FF,00,00
14043681,00000026,false,Rx,0,8,39,C5,00,00,00,AA,00,00
14053681,0000000A,false,Rx,0,6,94,00,00,2E,FE,FF,00,00
14063682,0000000E,false,Rx,0,8,AA,FD,80,FF,D0,3F,00,FF
14073682,0000002A,false,Rx,0,8,D2,F6,FF,FF,17,00,4C,FF
14083676,0000000B,false,Rx,0,8,54,69,55,00,CB,30,00,0C
14093680,00000013,false,Rx,0,8,00,D0,00,07,9F,56,00,FF
14103680,00000024,false,Rx,0,5,AC,F9,2F,22,08,00,00,00
14133682,00000020,false,Rx,0,6,00,44,0B,00,E0,FF,00,00
14143682,00000026,false,Rx,0,8,39,C5,00,00,00,AA,00,00
14153676,00000010,false,Rx,0,8,CE,01,00,01,00,00,40,32
14173674,0000002B,false,Rx,0,8,00,00,00,00,FE,89,0B,FE
14183680,0000000B,false,Rx,0,8,55,A5,55,00,CA,30,00,0C
14193681,00000013,false,Rx,0,8,00,D0,00,07,9F,56,00,FF
14203681,00000024,false,Rx,0,5,AA,F9,2F,22,0A,00,00,00
14213688,00000036,false,Rx,0,8,D3,12,00,AA,FF,C0,1B,E0
14223676,0000002E,false,Rx,0,8,00,FC,FF,FF,FF,FF,FF,FF
14233689,00000020,false,Rx,0,6,00,44,0B,00,E0,FF,00,00
14243686,00000026,false,Rx,0,8,39,C5,00,00,00,AA,00,00
14253683,0000000A,false,Rx,0,6,94,00,00,2E,FE,FF,00,00
14263677,00000014,false,Rx,0,0,00,00,00,00,00,00,00,00
14273687,0000002A,false,Rx,0,8,D2,F6,FF,FF,17,00,4C,FF
14283678,0000000B,false,Rx,0,8,AA,AA,55,00,CA,30,00,0C
14293682,00000013,false,Rx,0,8,00,D0,00,07,9F,56,00,FF
14303682,00000024,false,Rx,0,5,AB,F9,2F,22,09,00,00,00
14323677,00000028,false,Rx,0,0,00,00,00,00,00,00,00,00
14333687,00000020,false,Rx,0,6,00,44,0B,00,E0,FF,00,00
14343687,00000026,false,Rx,0,8,39,C5,00,00,00,AA,00,00
14353678,00000010,false,Rx,0,8,CE,01,00,01,00,00,40,32
14363685,00000007,false,Rx,0,0,00,00,00,00,00,00,00,00
14373682,0000002B,false,Rx,0,8,00,00,00,00,FE,8B,0B,FE
14383686,0000000B,false,Rx,0,8,4B,16,55,00,CC,30,00,04
14393686,00000013,false,Rx,0,8,00,D0,00,07,A1,56,00,FF
14403687,00000024,false,Rx,0,5,A9,F9,2F,22,0B,00,00,00
14413684,00000037,false,Rx,0,8,FF,2F,C2,63,89,A5,0D,48
14423687,0000002E,false,Rx,0,8,00,FC,FF,FF,FF,FF,FF,FF
14433695,00000020,false,Rx,0,6,00,44,0B,00,E0,FF,00,00
14443688,00000026,false,Rx,0,8,39,C5,00,00,00,AA,00,00
14453689,0000000A,false,Rx,0,6,94,00,00,2E,FE,FF,00,00
14463689,0000000E,false,Rx,0,8,AA,FD,80,FF,D0,3F,00,FF
14473690,0000002A,false,Rx,0,8,D2,F6,FF,FF,17,00,4C,FF
14483680,0000000B,false,Rx,0,8,54,69,55,00,CA,30,00,04
14493687,00000013,false,Rx,0,8,00,D0,00,07,9F,56,00,FF
14503688,00000024,false,Rx,0,5,AB,F9,2F,22,09,00,00,00
14533686,00000020,false,Rx,0,6,00,44,0B,00,E0,FF,00,00
14543689,00000026,false,Rx,0,8,39,C5,00,00,00,AA,00,00
14553683,00000010,false,Rx,0,8,CE,01,00,01,00,00,40,32
14573681,0000002B,false,Rx,0,8,00,00,00,00,FE,8B,0B,FE
14583688,0000000B,false,Rx,0,8,55,A5,55,00,CA,10,00,04
14593688,00000013,false,Rx,0,8,00,D0,00,07,9F,56,00,FF
14603689,00000024,false,Rx,0,5,AB,F9,2F,22,09,00,00,00
14613696,00000036,false,Rx,0,8,D3,12,00,AA,FF,C0,1B,E0
14623683,0000002E,false,Rx,0,8,00,FC,FF,FF,FF,FF,FF,FF
14633697,00000020,false,Rx,0,6,00,44,0B,00,E0,FF,00,00
14643691,00000026,false,Rx,0,8,39,C5,00,00,00,AA,00,00
14653691,0000000A,false,Rx,0,6,94,00,00,2E,FE,FF,00,00
14663685,00000014,false,Rx,0,0,00,00,00,00,00,00,00,00
14673695,0000002A,false,Rx,0,8,D2,F6,FF,FF,17,00,4C,FF
14683686,0000000B,false,Rx,0,8,AA,AA,55,00,CB,10,00,04
14693689,00000013,false,Rx,0,8,00,D0,00,07,9F,56,00,FF
14703690,00000024,false,Rx,0,5,AA,F9,2F,22,0A,00,00,00
14723684,00000028,false,Rx,0,0,00,00,00,00,00,00,00,00
14733694,00000020,false,Rx,0,6,00,44,0B,00,E0,FF,00,00
14743695,00000026,false,Rx,0,8,39,C5,00,00,00,AA,00,00
14753685,00000010,false,Rx,0,8,CE,01,00,01,00,00,40,32
14763692,00000007,false,Rx,0,0,00,00,00,00,00,00,00,00
14773693,0000003C,false,Rx,0,8,61,03,22,62,1B,FF,FF,FF
14783687,0000002B,false,Rx,0,8,00,00,00,00,FE,8B,0B,FE
14793694,0000000B,false,Rx,0,8,4B,16,55,00,CA,10,00,04
14803694,00000013,false,Rx,0,8,00,D0,00,07,9F,56,00,FF
14813691,00000024,false,Rx,0,5,AA,F9,2F,22,0A,00,00,00
14823692,00000037,false,Rx,0,8,FF,2F,C2,63,89,A9,0D,48
14833692,0000003D,false,Rx,0,8,61,10,0E,62,62,1B,31,45
14843709,0000002E,false,Rx,0,8,00,FC,FF,FF,FF,FF,FF,FF
14853703,00000020,false,Rx,0,6,00,44,0B,00,E0,FF,00,00
14863697,00000026,false,Rx,0,8,39,C5,00,00,00,AA,00,00
14873697,0000000A,false,Rx,0,6,94,00,00,2E,FE,FF,00,00
14883697,0000000E,false,Rx,0,8,AA,FD,80,FF,D0,3F,00,FF
14893688,0000003D,false,Rx,0,8,61,21,41,38,32,30,30,32
14903715,0000002A,false,Rx,0,8,D2,F6,FF,FF,17,00,4C,FF
14913689,0000000B,false,Rx,0,8,54,69,55,00,CB,10,00,04
14923696,00000013,false,Rx,0,8,00,D0,00,07,A1,56,00,FF
14933696,00000024,false,Rx,0,5,AB,F9,2F,22,09,00,00,00
14963688,0000003D,false,Rx,0,8,61,22,31,41,20,FF,FF,FF
14973711,00000020,false,Rx,0,6,00,44,0B,00,E0,FF,00,00
14983692,00000035,false,Rx,0,8,00,00,00,00,00,00,00,0B
14993705,00000026,false,Rx,0,8,39,C5,00,00,00,AA,00,00
15003690,00000010,false,Rx,0,8,CE,01,00,01,00,00,80,32
15023690,0000002B,false,Rx,0,8,00,00,00,00,FE,8C,0B,FE
15033697,0000000B,false,Rx,0,8,55,A5,55,00,CB,10,00,04
15043701,0000003C,false,Rx,0,8,61,03,22,64,1B,FF,FF,FF
15053692,00000013,false,Rx,0,8,00,D0,00,07,9F,56,00,FF
15063699,00000024,false,Rx,0,5,AC,F9,2F,22,08,00,00,00
15073702,00000036,false,Rx,0,8,D3,12,00,AA,FF,C0,1B,E0
15083693,0000002E,false,Rx,0,8,00,FC,FF,FF,FF,FF,FF,FF
15093707,00000020,false,Rx,0,6,00,44,0B,00,E0,FF,00,00
15103694,0000003D,false,Rx,0,8,61,10,07,62,64,1B,30,30
15113720,00000026,false,Rx,0,8,39,C5,00,00,00,AA,00,00
15123701,0000000A,false,Rx,0,6,94,00,00,2E,FE,FF,00,00
15133692,00000014,false,Rx,0,0,00,00,00,00,00,00,00,00
15143702,0000002A,false,Rx,0,8,D2,F6,FF,FF,17,00,4C,FF
15153693,0000000B,false,Rx,0,8,AA,AA,54,00,CB,10,00,04
15163700,0000003D,false,Rx,0,8,61,21,30,34,FF,FF,FF,FF
15173707,00000013,false,Rx,0,8,00,D0,00,07,9F,56,00,FF
15183701,00000024,false,Rx,0,5,AA,F9,2F,22,0A,00,00,00
15203692,00000028,false,Rx,0,0,00,00,00,00,00,00,00,00
15213702,00000020,false,Rx,0,6,00,44,0B,00,E0,FF,00,00
15223702,00000026,false,Rx,0,8,39,C5,00,00,00,AA,00,00
15233693,00000010,false,Rx,0,8,CE,01,00,01,00,00,80,32
15243703,0000003C,false,Rx,0,8,61,03,22,66,1B,FF,FF,FF
15253694,00000007,false,Rx,0,0,00,00,00,00,00,00,00,00
15263698,0000002B,false,Rx,0,8,00,00,00,00,FE,8C,0B,FE
15273701,0000000B,false,Rx,0,8,4B,16,55,00,CA,10,00,04
15283702,00000013,false,Rx,0,8,00,D0,00,07,9F,56,00,FF
15293702,00000024,false,Rx,0,5,AA,F9,2F,22,0A,00,00,00
15303699,0000003D,false,Rx,0,8,61,10,0E,62,66,1B,31,45
15313716,00000037,false,Rx,0,8,FF,0F,C2,63,89,A5,0D,48
15323703,0000002E,false,Rx,0,8,00,FC,FF,FF,FF,FF,FF,FF
15333710,00000020,false,Rx,0,6,00,44,0B,00,E0,FF,00,00
15343704,00000026,false,Rx,0,8,39,C5,00,00,00,AA,00,00
15353705,0000000A,false,Rx,0,6,94,00,00,2E,FE,FF,00,00
15363699,0000003D,false,Rx,0,8,61,21,41,38,32,30,30,32
15373722,0000000E,false,Rx,0,8,AA,FD,80,FF,D0,3F,00,FF
15383706,0000002A,false,Rx,0,8,D2,F6,FF,FF,17,00,4C,FF
15393697,0000000B,false,Rx,0,8,54,69,55,00,CB,10,00,04
15403704,00000013,false,Rx,0,8,00,D0,00,07,A1,56,00,FF
15413704,00000024,false,Rx,0,5,AA,F9,2F,22,0A,00,00,00
15443696,0000003D,false,Rx,0,8,61,22,31,41,20,FF,FF,FF
15453722,00000020,false,Rx,0,6,00,44,0B,00,E0,FF,00,00
15463706,00000026,false,Rx,0,8,39,C5,00,00,00,AA,00,00
15473700,00000010,false,Rx,0,8,CE,01,00,01,00,00,80,32
15493698,0000002B,false,Rx,0,8,00,00,00,00,FE,8D,0B,FE
15503705,0000000B,false,Rx,0,8,55,A5,55,00,CB,10,00,04
15513705,00000013,false,Rx,0,8,00,D0,00,07,9F,56,00,FF
15523709,0000003C,false,Rx,0,8,61,03,22,68,1B,FF,FF,FF
15533699,00000024,false,Rx,0,5,AB,F9,2F,22,09,00,00,00
15543713,00000036,false,Rx,0,8,D3,12,00,AA,FF,C0,1B,E0
15553700,0000002E,false,Rx,0,8,00,FC,FF,FF,FF,FF,FF,FF
15563714,00000020,false,Rx,0,6,00,44,0B,00,E0,FF,00,00
15573708,00000026,false,Rx,0,8,39,C5,00,00,00,AA,00,00
15583702,0000003D,false,Rx,0,8,61,06,62,68,1B,30,30,32
15593731,0000000A,false,Rx,0,6,94,00,00,2E,FE,FF,00,00
15603702,00000014,false,Rx,0,0,00,00,00,00,00,00,00,00
15613709,0000002A,false,Rx,0,8,D2,F6,FF,FF,17,00,4C,FF
15623703,0000000B,false,Rx,0,8,AA,AA,55,00,CA,10,00,04
15633707,00000013,false,Rx,0,8,00,D0,00,07,9F,56,00,FF
15643707,00000024,false,Rx,0,5,AB,F9,2F,22,09,00,00,00
15663702,00000028,false,Rx,0,0,00,00,00,00,00,00,00,00
15673712,00000020,false,Rx,0,6,00,44,0B,00,E0,FF,00,00
15683706,0000003C,false,Rx,0,8,61,03,22,6A,1B,FF,FF,FF
15693710,00000026,false,Rx,0,8,39,C5,00,00,00,AA,00,00
15703703,00000010,false,Rx,0,8,CE,01,00,01,00,00,80,32
15713707,00000007,false,Rx,0,0,00,00,00,00,00,00,00,00
15723704,0000002B,false,Rx,0,8,00,00,00,00,FE,8D,0B,FE
15733708,0000000B,false,Rx,0,8,4B,16,55,00,CA,10,00,04
15743712,0000003D,false,Rx,0,8,61,10,17,62,6A,1B,30,30
15753725,00000013,false,Rx,0,8,00,D0,00,07,9F,56,00,FF
15763709,00000024,false,Rx,0,5,AA,F9,2F,22,0A,00,00,00
15773706,00000037,false,Rx,0,8,FF,0F,C2,63,89,A5,1D,48
15783710,0000002E,false,Rx,0,8,00,FC,FF,FF,FF,FF,FF,FF
15793717,00000020,false,Rx,0,6,00,44,0B,00,E0,FF,00,00
15803705,0000003D,false,Rx,0,8,61,21,30,30,30,30,30,30
15813728,00000026,false,Rx,0,8,39,C5,00,00,00,AA,00,00
15823715,0000000A,false,Rx,0,6,94,00,00,2E,FE,FF,00,00
15833712,0000000E,false,Rx,0,8,AA,FD,80,FF,D0,3F,00,FF
15843716,0000002A,false,Rx,0,8,D2,F6,FF,FF,17,00,4C,FF
15853707,0000000B,false,Rx,0,8,54,69,54,00,CA,10,00,04
15863714,0000003D,false,Rx,0,8,61,22,30,30,30,30,30,30
15873720,00000013,false,Rx,0,8,00,D0,00,07,A1,56,00,FF
15883711,00000024,false,Rx,0,5,AC,F9,2F,22,08,00,00,00
15913712,00000020,false,Rx,0,6,00,44,0B,00,E0,FF,00,00
15923706,0000003D,false,Rx,0,8,61,23,30,30,30,34,36,35
15933733,00000026,false,Rx,0,8,39,C5,00,00,00,AA,00,00
15943707,00000010,false,Rx,0,8,CE,01,00,01,00,00,80,32
15963705,0000002B,false,Rx,0,8,00,00,00,00,FE,8E,0B,FE
15973715,0000000B,false,Rx,0,8,55,A5,55,00,CB,10,00,04
15983715,00000013,false,Rx,0,8,00,D0,00,07,9F,56,00,FF
15993713,00000024,false,Rx,0,5,AC,F9,2F,22,08,00,00,00
16003717,0000003C,false,Rx,0,8,61,03,22,6C,1B,FF,FF,FF
16013717,00000036,false,Rx,0,8,D3,12,00,AA,FF,C0,1B,E0
16023711,0000002E,false,Rx,0,8,00,FC,FF,FF,FF,FF,FF,FF
16033724,00000020,false,Rx,0,6,00,44,0B,00,E0,FF,00,00
16043718,00000026,false,Rx,0,8,39,C5,00,00,00,AA,00,00
16053719,0000000A,false,Rx,0,6,94,00,00,2E,FE,FF,00,00
16063709,0000003D,false,Rx,0,8,61,10,10,62,6C,1B,4A,31
16073729,00000014,false,Rx,0,0,00,00,00,00,00,00,00,00
16083720,0000002A,false,Rx,0,8,D2,F6,FF,FF,17,00,4C,FF
16093710,0000000B,false,Rx,0,8,AA,AA,55,00,CB,10,00,04
16103717,00000013,false,Rx,0,8,00,D0,00,07,9F,56,00,FF
16113715,00000024,false,Rx,0,5,AC,F9,2F,22,08,00,00,00
16133709,0000003D,false,Rx,0,8,61,21,32,36,20,4A,31,32
16143726,00000028,false,Rx,0,0,00,00,00,00,00,00,00,00
16153720,00000020,false,Rx,0,6,00,44,0B,00,E0,FF,00,00
16163720,00000026,false,Rx,0,8,39,C5,00,00,00,AA,00,00
16173711,00000010,false,Rx,0,8,CE,01,00,01,00,00,C0,32
16183717,0000003D,false,Rx,0,8,61,22,36,20,20,20,20,FF
16193728,00000007,false,Rx,0,0,00,00,00,00,00,00,00,00
16203715,0000002B,false,Rx,0,8,00,00,00,00,FE,8E,0B,FE
16213719,0000000B,false,Rx,0,8,4B,16,55,00,CA,10,00,04
16223719,00000013,false,Rx,0,8,00,D0,00,07,9F,56,00,FF
16233717,00000024,false,Rx,0,5,AB,F9,2F,22,09,00,00,00
16243717,00000037,false,Rx,0,8,FF,0F,02,64,89,A5,1D,48
16253717,0000002E,false,Rx,0,8,00,FC,FF,FF,FF,FF,FF,FF
16263728,00000020,false,Rx,0,6,00,44,0B,00,E0,FF,00,00
16273721,00000026,false,Rx,0,8,39,C5,00,00,00,AA,00,00
16283719,0000003C,false,Rx,0,8,61,03,22,6E,1B,FF,FF,FF
16293722,0000000A,false,Rx,0,6,94,00,00,2E,FE,FF,00,00
16303723,0000000E,false,Rx,0,8,AA,FD,80,FF,D0,3F,00,FF
16313723,0000002A,false,Rx,0,8,D2,F6,FF,FF,17,00,4C,FF
16323714,0000000B,false,Rx,0,8,54,69,55,00,CB,10,00,04
16333721,00000013,false,Rx,0,8,00,D0,00,07,9F,56,00,FF
16343721,0000003D,false,Rx,0,8,61,10,1A,62,6E,1B,56,4C
16353735,00000024,false,Rx,0,5,AB,F9,2F,22,09,00,00,00
16383720,00000020,false,Rx,0,6,00,44,0B,00,E0,FF,00,00
16393723,00000026,false,Rx,0,8,39,C5,00,00,00,AA,00,00
16403717,0000003D,false,Rx,0,8,61,21,31,2D,30,36,36,31
16413731,00000010,false,Rx,0,8,CE,01,00,01,00,00,C0,32
16433712,0000002B,false,Rx,0,8,00,00,00,00,FE,8E,0B,FE
16443722,0000000B,false,Rx,0,8,55,A5,54,00,CB,10,00,04
16453723,00000013,false,Rx,0,8,00,D0,00,07,9F,56,00,FF
16463723,0000003D,false,Rx,0,8,61,22,35,2E,30,39,2E,32
16473733,00000024,false,Rx,0,5,AC,F9,2F,22,08,00,00,00
16483730,00000036,false,Rx,0,8,D3,12,00,AA,FF,C0,1B,E0
16493718,0000002E,false,Rx,0,8,00,FC,FF,FF,FF,FF,FF,FF
16503731,00000020,false,Rx,0,6,00,44,0B,00,E0,FF,00,00
16513725,00000026,false,Rx,0,8,39,C5,00,00,00,AA,00,00
16523719,0000003D,false,Rx,0,8,61,23,30,45,4F,4C,31,30
16533742,0000000A,false,Rx,0,6,94,00,00,2E,FE,FF,00,00
16543720,00000014,false,Rx,0,0,00,00,00,00,00,00,00,00
16553727,0000002A,false,Rx,0,8,D2,F6,FF,FF,17,00,4C,FF
16563717,0000000B,false,Rx,0,8,AA,AA,55,00,CA,10,00,04
16573725,00000013,false,Rx,0,8,00,D0,00,07,9F,56,00,FF
16583725,0000003D,false,Rx,0,8,61,24,34,36,35,FF,FF,FF
16593732,00000024,false,Rx,0,5,AA,F9,2F,22,0A,00,00,00
16613716,00000028,false,Rx,0,0,00,00,00,00,00,00,00,00
16623730,00000020,false,Rx,0,6,00,44,0B,00,E0,FF,00,00
16633727,00000026,false,Rx,0,8,39,C5,00,00,00,AA,00,00
16643721,00000010,false,Rx,0,8,CE,01,00,01,00,00,C0,32
16653725,00000007,false,Rx,0,0,00,00,00,00,00,00,00,00
16663722,0000002B,false,Rx,0,8,00,00,00,00,FE,8E,0B,FE
16673726,0000000B,false,Rx,0,8,4B,16,55,00,CA,10,00,04
16683729,0000003C,false,Rx,0,8,1A,03,22,62,3F,FF,FF,FF
16693720,00000013,false,Rx,0,8,00,D0,00,07,9F,56,00,FF
16703727,00000024,false,Rx,0,5,AA,F9,2F,22,0A,00,00,00
16713724,00000037,false,Rx,0,8,FF,0F,C2,63,89,A5,1D,48
16723728,0000002E,false,Rx,0,8,00,FC,FF,FF,FF,FF,FF,FF
16733735,00000020,false,Rx,0,6,00,44,0B,00,E0,FF,00,00
16743722,0000003D,false,Rx,0,8,1A,10,0E,62,62,3F,35,51
16753752,00000026,false,Rx,0,8,39,C5,00,00,00,AA,00,00
16763729,0000000A,false,Rx,0,6,94,00,00,2E,FE,FF,00,00
16773730,0000000E,false,Rx,0,8,AA,FD,80,FF,D0,3F,00,FF
16783730,0000002A,false,Rx,0,8,D2,F6,FF,FF,17,00,4C,FF
16793721,0000000B,false,Rx,0,8,54,69,55,00,CB,10,00,04
16803731,0000003D,false,Rx,0,8,1A,21,30,39,30,37,36,35
16813738,00000013,false,Rx,0,8,00,D0,00,07,9F,56,00,FF
16823729,00000024,false,Rx,0,5,A9,F9,2F,22,0B,00,00,00
16853730,00000020,false,Rx,0,6,00,44,0B,00,E0,FF,00,00
16863724,0000003D,false,Rx,0,8,1A,22,39,44,20,FF,FF,FF
16873747,00000026,false,Rx,0,8,39,C5,00,00,00,AA,00,00
16883725,00000010,false,Rx,0,8,CE,01,00,01,00,00,C0,32
16903723,0000002B,false,Rx,0,8,00,00,00,00,FE,8F,0B,FE
16913730,0000000B,false,Rx,0,8,55,A5,55,00,CB,10,00,04
16923730,00000013,false,Rx,0,8,00,D0,00,07,9F,56,00,FF
16933730,00000024,false,Rx,0,5,AB,F9,2F,22,09,00,00,00
16943737,00000036,false,Rx,0,8,D3,12,00,AA,FF,C0,1B,E0
16953725,0000002E,false,Rx,0,8,00,FC,FF,FF,FF,FF,FF,FF
16963735,0000003C,false,Rx,0,8,1A,03,22,64,3F,FF,FF,FF
16973735,00000020,false,Rx,0,6,00,44,0B,00,E0,FF,00,00
16983736,00000026,false,Rx,0,8,39,C5,00,00,00,AA,00,00
16993733,0000000A,false,Rx,0,6,94,00,00,2E,FE,FF,00,00
17003727,00000014,false,Rx,0,0,00,00,00,00,00,00,00,00
17013737,0000002A,false,Rx,0,8,D2,F6,FF,FF,17,00,4C,FF
17023728,0000003D,false,Rx,0,8,1A,10,07,62,64,3F,30,30
17033748,0000000B,false,Rx,0,8,AA,AA,55,00,CB,10,00,04
17043732,00000013,false,Rx,0,8,00,D0,00,07,9F,56,00,FF
17053732,00000024,false,Rx,0,5,AB,F9,2F,22,09,00,00,00
17073727,00000028,false,Rx,0,0,00,00,00,00,00,00,00,00
17083730,0000003D,false,Rx,0,8,1A,21,30,33,FF,FF,FF,FF
17093750,00000020,false,Rx,0,6,00,44,0B,00,E0,FF,00,00
17103738,00000026,false,Rx,0,8,39,C5,00,00,00,AA,00,00
17113728,00000010,false,Rx,0,8,CE,01,00,01,00,00,C0,32
17123735,00000007,false,Rx,0,0,00,00,00,00,00,00,00,00
17133729,0000002B,false,Rx,0,8,00,00,00,00,FE,8F,0B,FE
17143736,0000000B,false,Rx,0,8,4B,16,54,00,CB,10,00,04
17153733,00000013,false,Rx,0,8,00,D0,00,07,A1,56,00,FF
17163740,0000003C,false,Rx,0,8,1A,03,22,66,3F,FF,FF,FF
17173731,00000024,false,Rx,0,5,AA,F9,2F,22,0A,00,00,00
17183735,00000037,false,Rx,0,8,FF,0F,02,64,89,A9,1D,48
17193735,0000002E,false,Rx,0,8,00,FC,FF,FF,FF,FF,FF,FF
17203745,00000020,false,Rx,0,6,00,44,0B,00,E0,FF,00,00
17213739,00000026,false,Rx,0,8,39,C5,00,00,00,AA,00,00
17223733,0000003D,false,Rx,0,8,1A,10,0E,62,66,3F,35,51
17233759,0000000A,false,Rx,0,6,94,00,00,2E,FE,FF,00,00
17243740,0000000E,false,Rx,0,8,AA,FD,80,FF,D0,3F,00,FF
17253737,0000002A,false,Rx,0,8,D2,F6,FF,FF,17,00,4C,FF
17263731,0000000B,false,Rx,0,8,54,69,55,00,CA,10,00,04
17273738,00000013,false,Rx,0,8,00,D0,00,07,9F,56,00,FF
17283739,0000003D,false,Rx,0,8,1A,21,30,39,30,37,36,35
17293746,00000024,false,Rx,0,5,AA,F9,2F,22,0A,00,00,00
17323737,00000020,false,Rx,0,6,00,44,0B,00,E0,FF,00,00
17333741,00000026,false,Rx,0,8,39,C5,00,00,00,AA,00,00
17343735,0000003D,false,Rx,0,8,1A,22,39,44,20,FF,FF,FF
17353748,00000010,false,Rx,0,8,CE,01,00,01,00,00,00,32
17373730,0000002B,false,Rx,0,8,00,00,00,00,FE,8F,0B,FE
17383740,0000000B,false,Rx,0,8,55,A5,55,00,CC,10,00,04
17393740,00000013,false,Rx,0,8,00,D0,00,07,9F,56,00,FF
17403741,00000024,false,Rx,0,5,AA,F9,2F,22,0A,00,00,00
17413744,00000036,false,Rx,0,8,D2,12,00,AA,FF,C0,1B,E0
17423735,0000002E,false,Rx,0,8,00,FC,FF,FF,FF,FF,FF,FF
17433748,00000020,false,Rx,0,6,00,44,0B,00,E0,FF,00,00
17443739,0000003C,false,Rx,0,8,1A,03,22,68,3F,FF,FF,FF
17453743,00000026,false,Rx,0,8,39,C5,00,00,00,AA,00,00
17463743,0000000A,false,Rx,0,6,94,00,00,2E,FE,FF,00,00
17473734,00000014,false,Rx,0,0,00,00,00,00,00,00,00,00
17483744,0000002A,false,Rx,0,8,D2,F6,FF,FF,17,00,4C,FF
17493735,0000000B,false,Rx,0,8,AA,AA,55,00,CB,10,00,04
17503742,0000003D,false,Rx,0,8,1A,06,62,68,3F,48,30,32
17513758,00000013,false,Rx,0,8,00,D0,00,07,9F,56,00,FF
17523743,00000024,false,Rx,0,5,AB,F9,2F,22,09,00,00,00
17543734,00000028,false,Rx,0,0,00,00,00,00,00,00,00,00
17553744,00000020,false,Rx,0,6,00,44,0B,00,E0,FF,00,00
17563744,00000026,false,Rx,0,8,39,C5,00,00,00,AA,00,00
17573738,00000010,false,Rx,0,8,CE,01,00,01,00,00,00,32
17583742,00000007,false,Rx,0,0,00,00,00,00,00,00,00,00
17593739,0000002B,false,Rx,0,8,00,00,00,00,FE,90,0B,FE
17603746,0000003C,false,Rx,0,8,1A,03,22,6A,3F,FF,FF,FF
17613737,0000000B,false,Rx,0,8,4B,16,55,00,CA,10,00,04
17623744,00000013,false,Rx,0,8,00,D0,00,07,9F,56,00,FF
17633744,00000024,false,Rx,0,5,AC,F9,2F,22,08,00,00,00
17643741,00000037,false,Rx,0,8,FF,0F,C2,63,89,A9,1D,48
17653745,0000002E,false,Rx,0,8,00,FC,FF,FF,FF,FF,FF,FF
17663745,0000003D,false,Rx,0,8,1A,10,17,62,6A,3F,30,30
17673769,00000020,false,Rx,0,6,00,44,0B,00,E0,FF,00,00
17683746,00000026,false,Rx,0,8,39,C5,00,00,00,AA,00,00
17693747,0000000A,false,Rx,0,6,94,00,00,2E,FE,FF,00,00
17703747,0000000E,false,Rx,0,8,AA,FD,80,FF,D0,3F,00,FF
17713747,0000002A,false,Rx,0,8,D2,F6,FF,FF,17,00,4C,FF
17723741,0000003D,false,Rx,0,8,1A,21,30,30,30,30,30,30
17733755,0000000B,false,Rx,0,8,54,69,54,00,CB,10,00,04
17743745,00000013,false,Rx,0,8,00,D0,00,07,A1,56,00,FF
17753746,00000024,false,Rx,0,5,A8,F9,2F,22,0C,00,00,00
17783737,0000003D,false,Rx,0,8,1A,22,30,30,30,30,30,30
17793764,00000020,false,Rx,0,6,00,44,0B,00,E0,FF,00,00
17803748,00000026,false,Rx,0,8,39,C5,00,00,00,AA,00,00
17813742,00000010,false,Rx,0,8,CE,01,00,01,00,00,00,32
17833740,0000002B,false,Rx,0,8,00,00,00,00,FE,90,0B,FE
17843747,0000003D,false,Rx,0,8,1A,23,32,37,36,34,39,37
17853757,0000000B,false,Rx,0,8,55,A5,55,00,CB,10,00,04
17863747,00000013,false,Rx,0,8,00,D0,00,07,9F,56,00,FF
17873748,00000024,false,Rx,0,5,A8,F9,2F,22,0C,00,00,00
17883755,00000036,false,Rx,0,8,D3,12,00,AA,FF,C0,1B,E0
17893742,0000002E,false,Rx,0,8,00,FC,FF,FF,FF,FF,FF,FF
17903756,00000020,false,Rx,0,6,00,44,0B,00,E0,FF,00,00
17913750,00000026,false,Rx,0,8,39,C5,00,00,00,AA,00,00
17923747,0000003C,false,Rx,0,8,1A,03,22,6C,3F,FF,FF,FF
17933750,0000000A,false,Rx,0,6,94,00,00,2E,FE,FF,00,00
17943745,00000014,false,Rx,0,0,00,00,00,00,00,00,00,00
17953751,0000002A,false,Rx,0,8,D2,F6,FF,FF,17,00,4C,FF
17963745,0000000B,false,Rx,0,7,AA,AA,54,00,10,00,04,00
17973749,00000013,false,Rx,0,8,00,D0,00,07,9F,56,00,FF
17983749,0000003D,false,Rx,0,8,1A,10,10,62,6C,3F,47,32
17993766,00000024,false,Rx,0,5,AB,F9,2F,22,09,00,00,00
18013741,00000028,false,Rx,0,0,00,00,00,00,00,00,00,00
18023754,00000020,false,Rx,0,6,00,44,0B,00,E0,FF,00,00
18033751,00000026,false,Rx,0,8,39,C5,00,00,00,AA,00,00
18043745,0000003D,false,Rx,0,8,1A,21,33,38,20,5F,41,51
18053762,00000010,false,Rx,0,8,CE,01,00,01,00,00,00,32
18063753,00000007,false,Rx,0,0,00,00,00,00,00,00,00,00
18073747,0000002B,false,Rx,0,8,00,00,00,00,FE,90,0B,FE
18083754,0000000B,false,Rx,0,8,4B,16,54,00,CA,10,00,04
18093751,00000013,false,Rx,0,8,00,D0,00,07,9F,56,00,FF
18103754,0000003D,false,Rx,0,8,1A,22,53,20,20,20,20,FF
18113762,00000024,false,Rx,0,5,A9,F9,2F,22,0B,00,00,00
18123749,00000037,false,Rx,0,8,FF,0F,C2,63,89,A5,1D,48
18133752,0000002E,false,Rx,0,8,00,FC,FF,FF,FF,FF,FF,FF
18143759,00000020,false,Rx,0,6,00,44,0B,00,E0,FF,00,00
18153753,00000026,false,Rx,0,8,39,C5,00,00,00,AA,00,00
18163757,0000000A,false,Rx,0,6,94,00,00,2E,FE,FF,00,00
18173754,0000000E,false,Rx,0,8,AA,FD,80,FF,D0,3F,00,FF
18183755,0000002A,false,Rx,0,8,D2,F6,FF,FF,17,00,4C,FF
18193748,0000000B,false,Rx,0,8,54,69,55,00,CB,10,00,04
18203759,0000003C,false,Rx,0,8,1A,03,22,6E,3F,FF,FF,FF
18213749,00000013,false,Rx,0,8,00,D0,00,07,9F,56,00,FF
18223753,00000024,false,Rx,0,5,A9,F9,2F,22,0B,00,00,00
18253754,00000020,false,Rx,0,6,00,44,0B,00,E0,FF,00,00
18263752,0000003D,false,Rx,0,8,1A,10,1A,62,6E,3F,45,56
18273778,00000026,false,Rx,0,8,39,C5,00,00,00,AA,00,00
18283749,00000010,false,Rx,0,8,CE,01,00,01,00,00,00,32
18303747,0000002B,false,Rx,0,8,00,00,00,00,FE,90,0B,FE
18313757,0000000B,false,Rx,0,8,55,A5,55,00,CA,10,00,04
18323757,0000003D,false,Rx,0,8,1A,21,4E,2D,41,51,53,32
18333764,00000013,false,Rx,0,8,00,D0,00,07,9F,56,00,FF
18343758,00000024,false,Rx,0,5,A9,F9,2F,22,0B,00,00,00
18353762,00000036,false,Rx,0,8,D3,12,00,AA,FF,C0,1B,E0
18363753,0000002E,false,Rx,0,8,00,FC,FF,FF,FF,FF,FF,FF
18373766,00000020,false,Rx,0,6,00,44,0B,00,E0,FF,00,00
18383753,0000003D,false,Rx,0,8,1A,22,39,2E,31,30,2E,32
18393773,00000026,false,Rx,0,8,39,C5,00,00,00,AA,00,00
18403761,0000000A,false,Rx,0,6,94,00,20,2E,FE,FF,00,00
18413752,00000014,false,Rx,0,0,00,00,00,00,00,00,00,00
18423762,0000002A,false,Rx,0,8,D2,F6,FF,FF,17,3C,4C,FF
18433752,0000000B,false,Rx,0,8,AA,AA,55,00,CB,10,00,04
18443759,0000003D,false,Rx,0,8,1A,23,30,30,30,30,31,30
18453769,00000013,false,Rx,0,8,00,D0,00,07,A1,56,00,FF
18463760,00000024,false,Rx,0,5,AA,F9,2F,22,0A,00,00,00
18483751,00000028,false,Rx,0,0,00,00,00,00,00,00,00,00
18493761,00000020,false,Rx,0,6,00,44,0B,00,E0,FF,00,00
18503755,0000003D,false,Rx,0,8,1A,24,30,31,43,FF,FF,FF
18513775,00000026,false,Rx,0,8,39,C5,00,00,00,AA,00,00
18523753,00000010,false,Rx,0,8,CE,01,00,01,00,00,40,32
18533760,00000007,false,Rx,0,0,00,00,00,00,00,00,00,00
18543757,0000002B,false,Rx,0,8,00,00,00,00,FE,90,0B,FE
18553761,0000000B,false,Rx,0,8,4B,16,55,00,CA,10,00,04
18563761,00000013,false,Rx,0,8,00,D0,00,07,9F,56,00,FF
18573758,00000024,false,Rx,0,5,AA,F9,2F,22,0A,00,00,00
18583759,00000037,false,Rx,0,8,FF,0F,C2,63,89,A1,1D,48
18593759,0000002E,false,Rx,0,8,00,FC,FF,FF,FF,FF,FF,FF
18603766,0000003C,false,Rx,0,8,19,06,B2,00,FF,7F,FF,FF
18613763,00000020,false,Rx,0,6,00,44,0B,00,E0,FF,00,00
18623764,00000026,false,Rx,0,8,39,C5,00,00,00,AA,00,00
18633764,0000000A,false,Rx,0,6,94,00,20,2E,FE,FF,00,00
18643765,0000000E,false,Rx,0,8,AA,FD,E4,FF,D0,3F,00,FF
18653765,0000002A,false,Rx,0,8,D2,F6,FF,FF,17,41,4C,FF
18663755,0000003D,false,Rx,0,0,00,00,00,00,00,00,00,00
18673756,0000000B,false,Rx,0,8,54,69,54,00,CA,10,00,04
18683763,00000013,false,Rx,0,8,00,D0,00,07,9F,56,00,FF
18693763,00000024,false,Rx,0,5,AB,F9,2F,22,09,00,00,00
18723755,0000003D,false,Rx,0,0,00,00,00,00,00,00,00,00
18733765,00000020,false,Rx,0,6,00,44,0B,00,E0,FF,00,00
18743766,00000026,false,Rx,0,8,39,C5,00,00,00,AA,00,00
18753756,00000010,false,Rx,0,8,CE,01,00,01,00,00,40,32
18773754,0000002B,false,Rx,0,8,00,00,00,00,FE,90,0B,FE
18783764,0000003D,false,Rx,0,0,00,00,00,00,00,00,00,00
18793758,0000000B,false,Rx,0,8,55,A5,54,00,CA,10,00,04
18803765,00000013,false,Rx,0,8,00,D0,00,07,9F,57,00,FF
18813765,00000024,false,Rx,0,5,A9,F9,2F,22,0B,00,00,00
18823772,00000036,false,Rx,0,8,D3,12,00,AA,FF,C0,1B,E0
18833760,0000002E,false,Rx,0,8,00,FC,FF,FF,FF,FF,FF,FF
18843767,0000003D,false,Rx,0,0,00,00,00,00,00,00,00,00
18853767,00000020,false,Rx,0,6,00,44,0B,00,E0,FF,00,00
18863767,00000026,false,Rx,0,8,39,C5,00,00,00,AA,00,00
18873768,0000000A,false,Rx,0,6,94,00,20,2E,FE,FF,00,00
18883762,00000014,false,Rx,0,0,00,00,00,00,00,00,00,00
18893769,0000002A,false,Rx,0,8,D2,F6,FF,FF,17,48,4C,FF
18903763,0000003D,false,Rx,0,0,00,00,00,00,00,00,00,00
18913763,0000000B,false,Rx,0,8,AA,AA,55,00,CA,10,00,04
18923767,00000013,false,Rx,0,8,00,D0,00,07,A1,57,00,FF
18933767,00000024,false,Rx,0,5,A9,F9,2F,22,0B,00,00,00
18953758,00000028,false,Rx,0,0,00,00,00,00,00,00,00,00
18963765,0000003D,false,Rx,0,0,00,00,00,00,00,00,00,00
18973772,00000020,false,Rx,0,6,00,44,0B,00,E0,FF,00,00
18983769,00000026,false,Rx,0,8,39,C5,00,00,00,AA,00,00
18993760,00000010,false,Rx,0,8,CE,01,00,01,00,00,40,32
19003767,00000007,false,Rx,0,0,00,00,00,00,00,00,00,00
19013764,0000002B,false,Rx,0,8,00,00,00,00,FE,8F,0B,FE
19023768,0000003D,false,Rx,0,0,00,00,00,00,00,00,00,00
19033765,0000000B,false,Rx,0,8,4B,16,55,00,CB,10,00,04
19043769,00000013,false,Rx,0,8,00,D0,00,07,9F,57,00,FF
19053769,00000024,false,Rx,0,5,A8,F9,2F,22,0C,00,00,00
19063766,00000037,false,Rx,0,8,FF,0F,C2,63,8A,A1,1D,48
19073770,0000002E,false,Rx,0,8,00,FC,FF,FF,FF,FF,FF,FF
19083770,0000003D,false,Rx,0,0,00,00,00,00,00,00,00,00
19093774,00000020,false,Rx,0,6,00,44,0B,00,E0,FF,00,00
19103771,00000026,false,Rx,0,8,39,C5,00,00,00,AA,00,00
19113772,0000000A,false,Rx,0,6,94,00,30,2E,FE,FF,00,00
19123772,0000000E,false,Rx,0,8,AA,FD,E4,FF,D0,3F,00,FF
19133772,0000002A,false,Rx,0,8,D2,F6,FF,FF,17,4B,4C,FF
19143770,0000003C,false,Rx,0,8,19,06,B2,00,FF,7F,FF,FF
19153764,0000000B,false,Rx,0,8,54,69,55,00,CA,10,00,04
19163770,00000013,false,Rx,0,8,00,D0,00,07,9F,57,00,FF
19173771,00000024,false,Rx,0,5,AA,F9,2F,22,0A,00,00,00
19203766,0000003D,false,Rx,0,0,00,00,00,00,00,00,00,00
19213776,00000020,false,Rx,0,6,00,44,0B,00,E0,FF,00,00
19223773,00000026,false,Rx,0,8,39,C5,00,00,00,AA,00,00
19233767,00000010,false,Rx,0,8,CE,01,00,01,00,00,40,32
19253765,0000002B,false,Rx,0,8,00,00,00,00,FE,8F,0B,FE
19263775,0000003D,false,Rx,0,0,00,00,00,00,00,00,00,00
19273769,0000000B,false,Rx,0,8,55,A5,55,00,CB,10,00,04
19283772,00000013,false,Rx,0,8,00,D0,00,07,9F,57,00,FF
19293773,00000024,false,Rx,0,5,A9,F9,2F,22,0B,00,00,00
19303780,00000036,false,Rx,0,8,D3,12,00,AA,FF,C0,1B,E0
19313767,0000002E,false,Rx,0,8,00,FC,FF,FF,FF,FF,FF,FF
19323774,0000003D,false,Rx,0,0,00,00,00,00,00,00,00,00
19333778,00000020,false,Rx,0,6,00,44,0B,00,E0,FF,00,00
19343775,00000026,false,Rx,0,8,39,C5,00,00,00,AA,00,00
19353775,0000000A,false,Rx,0,6,94,00,30,2E,FE,FF,00,00
19363769,00000014,false,Rx,0,0,00,00,00,00,00,00,00,00
19373776,0000002A,false,Rx,0,8,D2,F6,FF,FF,17,50,4C,FF
19383770,0000003D,false,Rx,0,0,00,00,00,00,00,00,00,00
19393771,0000000B,false,Rx,0,8,AA,AA,55,00,CB,10,00,04
19403774,00000013,false,Rx,0,8,00,D0,00,07,A1,57,00,FF
19413775,00000024,false,Rx,0,5,AB,F9,2F,22,09,00,00,00
19433766,00000028,false,Rx,0,0,00,00,00,00,00,00,00,00
19443773,0000003D,false,Rx,0,0,00,00,00,00,00,00,00,00
19453780,00000020,false,Rx,0,6,00,44,0B,00,E0,FF,00,00
19463780,00000026,false,Rx,0,8,39,C5,00,00,00,AA,00,00
19473771,00000010,false,Rx,0,8,CE,01,00,01,00,00,80,32
19483778,00000007,false,Rx,0,0,00,00,00,00,00,00,00,00
19493772,0000002B,false,Rx,0,8,00,00,00,00,FE,8E,0B,FE
19503778,0000003D,false,Rx,0,0,00,00,00,00,00,00,00,00
19513772,0000000B,false,Rx,0,8,4B,16,55,00,CB,10,00,04
19523776,00000013,false,Rx,0,8,00,D0,00,07,9F,57,00,FF
19533777,00000024,false,Rx,0,5,AA,F9,2F,22,0A,00,00,00
19543774,00000037,false,Rx,0,8,FF,0F,02,64,89,A9,1D,48
19553777,0000002E,false,Rx,0,8,00,FC,FF,FF,FF,FF,FF,FF
19563778,0000003D,false,Rx,0,0,00,00,00,00,00,00,00,00
19573781,00000020,false,Rx,0,6,00,44,0B,00,E0,FF,00,00
19583782,00000026,false,Rx,0,8,39,C5,00,00,00,AA,00,00
19593779,0000000A,false,Rx,0,6,94,00,30,2E,FE,FF,00,00
19603783,0000000E,false,Rx,0,8,AA,FD,E4,FF,D0,3F,00,FF
19613780,0000002A,false,Rx,0,8,D2,F6,FF,FF,17,55,4C,FF
19623774,0000003D,false,Rx,0,0,00,00,00,00,00,00,00,00
19633774,0000000B,false,Rx,0,8,54,69,55,00,CA,10,00,04
19643778,00000013,false,Rx,0,8,00,D0,00,07,A1,57,00,FF
19653778,00000024,false,Rx,0,5,AB,F9,2F,22,09,00,00,00
19683773,0000003D,false,Rx,0,0,00,00,00,00,00,00,00,00
19693783,00000020,false,Rx,0,6,00,44,0B,00,E0,FF,00,00
19703784,00000026,false,Rx,0,8,39,C5,00,00,00,AA,00,00
19713775,00000010,false,Rx,0,8,CE,01,00,01,00,00,80,32
19733772,0000002B,false,Rx,0,8,00,00,00,00,FE,8E,0B,FE
19743782,0000000B,false,Rx,0,8,55,A5,55,00,CA,10,00,04
19753779,00000013,false,Rx,0,8,00,D0,00,07,9F,57,00,FF
19763786,0000003C,false,Rx,0,8,39,03,22,62,5D,FF,FF,FF
19773777,00000024,false,Rx,0,5,AB,F9,2F,22,09,00,00,00
19783787,00000036,false,Rx,0,8,D3,12,00,AA,FF,C0,1B,E0
19793775,0000002E,false,Rx,0,8,00,FC,FF,FF,FF,FF,FF,FF
19803791,00000020,false,Rx,0,6,00,44,0B,00,E0,FF,00,00
19813785,00000026,false,Rx,0,8,39,C5,00,00,00,AA,00,00
19823779,0000003D,false,Rx,0,8,39,03,7F,22,31,FF,FF,FF
19833805,0000000A,false,Rx,0,6,94,00,30,2E,FE,FF,00,00
19843777,00000014,false,Rx,0,0,00,00,00,00,00,00,00,00
19853787,0000002A,false,Rx,0,8,D2,F6,FF,FF,17,5A,4C,FF
19863778,0000000B,false,Rx,0,8,AA,AA,55,00,CA,10,00,04
19873781,00000013,false,Rx,0,8,00,D0,00,07,A1,57,00,FF
19883782,00000024,false,Rx,0,5,A9,F9,2F,22,0B,00,00,00
19903776,00000028,false,Rx,0,0,00,00,00,00,00,00,00,00
19913789,00000020,false,Rx,0,6,00,44,0B,00,E0,FF,00,00
19923780,0000003C,false,Rx,0,8,39,03,22,F1,87,FF,FF,FF
19933787,00000026,false,Rx,0,8,39,C5,00,00,00,AA,00,00
19943778,00000010,false,Rx,0,8,CE,01,00,01,00,00,80,32
19953785,00000007,false,Rx,0,0,00,00,00,00,00,00,00,00
19963782,0000002B,false,Rx,0,8,00,00,00,00,FE,8D,0B,FE
19973786,0000000B,false,Rx,0,8,4B,16,55,00,CB,10,00,04
19983786,0000003D,false,Rx,0,8,39,10,0E,62,F1,87,31,45
19993799,00000013,false,Rx,0,8,00,D0,00,07,A1,57,00,FF
20003787,00000024,false,Rx,0,5,AA,F9,2F,22,0A,00,00,00
20013784,00000037,false,Rx,0,8,FF,0F,C2,63,8A,A9,1D,48
20023788,0000002E,false,Rx,0,8,00,FC,FF,FF,FF,FF,FF,FF
20033795,00000020,false,Rx,0,6,00,44,0B,00,E0,FF,00,00
20043782,0000003D,false,Rx,0,8,39,21,41,38,31,36,37,39
20053805,00000026,false,Rx,0,8,39,C5,00,00,00,AA,00,00
20063789,0000000A,false,Rx,0,6,94,00,40,2E,FE,FF,00,00
20073790,0000000E,false,Rx,0,8,AA,FD,E4,FF,D0,3F,00,FF
20083790,0000002A,false,Rx,0,8,D2,F6,FF,FF,17,5D,4C,FF
20093781,0000000B,false,Rx,0,8,54,69,55,00,CA,10,00,04
20103788,0000003D,false,Rx,0,8,39,22,37,46,20,FF,FF,FF
20113798,00000013,false,Rx,0,8,00,D0,00,07,9F,57,00,FF
20123789,00000024,false,Rx,0,5,AA,F9,2F,22,0A,00,00,00
20153787,00000020,false,Rx,0,6,00,44,0B,00,E0,FF,00,00
20163790,00000026,false,Rx,0,8,39,C5,00,00,00,AA,00,00
20173781,00000010,false,Rx,0,8,CE,01,00,01,00,00,80,32
20193782,0000002B,false,Rx,0,8,00,00,00,00,FE,8E,0B,FE
20203792,0000003C,false,Rx,0,8,39,03,22,64,5D,FF,FF,FF
20213783,0000000B,false,Rx,0,8,55,A5,55,00,CB,10,00,04
20223790,00000013,false,Rx,0,8,00,D0,00,07,9F,57,00,FF
20233790,00000024,false,Rx,0,5,AA,F9,2F,22,0A,00,00,00
20243794,00000036,false,Rx,0,8,D3,12,00,AA,FF,C0,1B,E0
20253785,0000002E,false,Rx,0,8,00,FC,FF,FF,FF,FF,FF,FF
20263791,0000003D,false,Rx,0,8,39,03,7F,22,31,FF,FF,FF
20273815,00000020,false,Rx,0,6,00,44,0B,00,E0,FF,00,00
20283792,00000026,false,Rx,0,8,39,C5,00,00,00,AA,00,00
20293793,0000000A,false,Rx,0,6,94,00,40,2E,FE,FF,00,00
20303783,00000014,false,Rx,0,0,00,00,00,00,00,00,00,00
20313794,0000002A,false,Rx,0,8,D2,F6,FF,FF,17,64,4C,FF
20323787,0000000B,false,Rx,0,8,AA,AA,55,00,CA,10,00,04
20333791,00000013,false,Rx,0,8,00,D0,00,07,9F,57,00,FF
20343792,00000024,false,Rx,0,5,AA,F9,2F,22,0A,00,00,00
20363789,0000003C,false,Rx,0,8,39,03,22,F1,89,FF,FF,FF
20373786,00000028,false,Rx,0,0,00,00,00,00,00,00,00,00
20383797,00000020,false,Rx,0,6,00,44,0B,00,E0,FF,00,00
20393794,00000026,false,Rx,0,8,39,C5,00,00,00,AA,00,00
20403788,00000010,false,Rx,0,8,CE,01,00,01,00,00,80,32
20413791,00000007,false,Rx,0,0,00,00,00,00,00,00,00,00
20423789,0000003D,false,Rx,0,8,39,10,07,62,F1,89,30,30
20433808,0000002B,false,Rx,0,8,00,00,00,00,FE,8C,0B,FE
20443793,0000000B,false,Rx,0,8,4B,16,55,00,CC,10,00,04
20453793,00000013,false,Rx,0,8,00,D0,00,07,9F,57,00,FF
20463793,00000024,false,Rx,0,5,AC,F9,2F,22,08,00,00,00
20473791,00000037,false,Rx,0,8,FF,0F,02,64,89,A9,1D,48
20483794,0000003D,false,Rx,0,8,39,21,30,32,FF,FF,FF,FF
20493801,0000002E,false,Rx,0,8,00,FC,FF,FF,FF,FF,FF,FF
20503802,00000020,false,Rx,0,6,00,44,0B,00,E0,FF,00,00
20513796,00000026,false,Rx,0,8,39,C5,00,00,00,AA,00,00
20523796,0000000A,false,Rx,0,6,94,00,40,2E,FE,FF,00,00
20533796,0000000E,false,Rx,0,8,AA,FD,E4,FF,D0,3F,00,FF
20543797,0000002A,false,Rx,0,7,D2,F6,FF,FF,17,68,FF,00
20553787,0000000B,false,Rx,0,8,54,69,55,00,CA,10,00,04
20563801,0000003C,false,Rx,0,8,39,03,22,66,5D,FF,FF,FF
20573788,00000013,false,Rx,0,8,00,D0,00,07,A1,57,00,FF
20583795,00000024,false,Rx,0,5,AA,F9,2F,22,0A,00,00,00
20613796,00000020,false,Rx,0,6,00,44,0B,00,E0,FF,00,00
20623790,0000003D,false,Rx,0,8,39,03,7F,22,31,FF,FF,FF
20633820,00000026,false,Rx,0,8,39,C5,00,00,00,AA,00,00
20643791,00000010,false,Rx,0,8,CE,01,00,01,00,00,C0,32
20663789,0000002B,false,Rx,0,8,00,00,00,00,FE,8C,0B,FE
20673796,0000000B,false,Rx,0,8,55,A5,55,00,CB,10,00,04
20683796,00000013,false,Rx,0,8,00,D0,00,07,9F,57,00,FF
20693797,00000024,false,Rx,0,5,AB,F9,2F,22,09,00,00,00
20703804,00000036,false,Rx,0,8,D3,12,00,AA,FF,C0,1B,E0
20713791,0000002E,false,Rx,0,8,00,FC,FF,FF,FF,FF,FF,FF
20723801,0000003C,false,Rx,0,8,39,03,22,F1,91,FF,FF,FF
20733802,00000020,false,Rx,0,6,00,44,0B,00,E0,FF,00,00
20743802,00000026,false,Rx,0,8,39,C5,00,00,00,AA,00,00
20753799,0000000A,false,Rx,0,6,94,00,40,2E,FE,FF,00,00
20763793,00000014,false,Rx,0,0,00,00,00,00,00,00,00,00
20773803,0000002A,false,Rx,0,8,D2,F6,FF,FF,17,6C,4C,FF
20783794,0000003D,false,Rx,0,8,39,10,0E,62,F1,91,31,45
20793814,0000000B,false,Rx,0,8,AA,AA,55,00,CA,10,00,04
20803801,00000013,false,Rx,0,8,00,D0,00,07,A1,57,00,FF
20813799,00000024,false,Rx,0,5,AA,F9,2F,22,0A,00,00,00
20833793,00000028,false,Rx,0,0,00,00,00,00,00,00,00,00
20843797,0000003D,false,Rx,0,8,39,21,41,38,31,36,37,39
20853820,00000020,false,Rx,0,6,00,44,0B,00,E0,FF,00,00
20863804,00000026,false,Rx,0,8,39,C5,00,00,00,AA,00,00
20873795,00000010,false,Rx,0,8,CE,01,00,01,00,00,C0,32
20883802,00000007,false,Rx,0,0,00,00,00,00,00,00,00,00
20893796,0000002B,false,Rx,0,8,00,00,00,00,FE,8C,0B,FE
20903803,0000003D,false,Rx,0,8,39,22,37,46,20,FF,FF,FF
20913809,0000000B,false,Rx,0,8,4B,16,55,00,CB,10,00,04
20923803,00000013,false,Rx,0,8,00,D0,00,07,A1,57,00,FF
20933801,00000024,false,Rx,0,5,A9,F9,2F,22,0B,00,00,00
20943801,00000037,false,Rx,0,8,FF,0F,02,64,89,AD,1D,48
20953802,0000002E,false,Rx,0,8,00,FC,FF,FF,FF,FF,FF,FF
20963812,00000020,false,Rx,0,6,00,44,0B,00,E0,FF,00,00
20973805,00000026,false,Rx,0,8,39,C5,00,00,00,AA,00,00
20983806,0000000A,false,Rx,0,6,94,00,40,2E,FE,FF,00,00
20993806,0000000E,false,Rx,0,8,AA,FD,E4,FF,D0,3F,00,FF
21003800,0000003C,false,Rx,0,8,39,03,22,68,5D,FF,FF,FF
21013804,0000002A,false,Rx,0,8,D2,F6,FF,FF,17,72,4C,FF
21023798,0000000B,false,Rx,0,8,54,69,55,00,CA,10,00,04
21033805,00000013,false,Rx,0,8,00,D0,00,07,A1,57,00,FF
21043802,00000024,false,Rx,0,5,A8,F9,2F,22,0C,00,00,00
21073797,0000003D,false,Rx,0,8,39,03,7F,22,31,FF,FF,FF
21083830,00000020,false,Rx,0,6,00,44,0B,00,E0,FF,00,00
21093807,00000026,false,Rx,0,8,39,C5,00,00,00,AA,00,00
21103798,00000010,false,Rx,0,8,CE,01,00,01,00,00,C0,32
21123799,0000002B,false,Rx,0,8,00,00,00,00,FE,8B,0B,FE
21133806,0000000B,false,Rx,0,8,55,A5,55,00,CA,10,00,04
21143806,00000013,false,Rx,0,8,00,D0,00,07,9F,57,00,FF
21153807,00000024,false,Rx,0,5,AC,F9,2F,22,08,00,00,00
21163807,0000003C,false,Rx,0,8,39,03,22,F1,A3,FF,FF,FF
21173807,00000036,false,Rx,0,8,D3,12,00,AA,FF,C0,1B,E0
21183801,0000002E,false,Rx,0,8,00,FC,FF,FF,FF,FF,FF,FF
21193815,00000020,false,Rx,0,6,00,44,0B,00,E0,FF,00,00
21203809,00000026,false,Rx,0,8,39,C5,00,00,00,AA,00,00
21213809,0000000A,false,Rx,0,6,94,00,50,2E,FE,FF,00,00
21223803,0000003D,false,Rx,0,8,39,06,62,F1,A3,48,30,36
21233823,00000014,false,Rx,0,0,00,00,00,00,00,00,00,00
21243810,0000002A,false,Rx,0,8,D2,F6,FF,FF,17,75,4C,FF
21253801,0000000B,false,Rx,0,8,AA,AA,55,00,CB,10,00,04
21263808,00000013,false,Rx,0,8,00,D0,00,07,9F,57,00,FF
21273809,00000024,false,Rx,0,5,AB,F9,2F,22,09,00,00,00
21293800,00000028,false,Rx,0,0,00,00,00,00,00,00,00,00
21303813,00000020,false,Rx,0,6,00,44,0B,00,E0,FF,00,00
21313810,00000026,false,Rx,0,8,39,C5,00,00,00,AA,00,00
21323807,0000003C,false,Rx,0,8,39,03,22,6A,5D,FF,FF,FF
21333805,00000010,false,Rx,0,8,CE,01,00,01,00,00,C0,32
21343808,00000007,false,Rx,0,0,00,00,00,00,00,00,00,00
21353805,0000002B,false,Rx,0,8,00,00,00,00,FE,8B,0B,FE
21363809,0000000B,false,Rx,0,8,4B,16,55,00,CC,10,00,04
21373809,00000013,false,Rx,0,8,00,D0,00,07,9F,57,00,FF
21383810,0000003D,false,Rx,0,8,39,03,7F,22,31,FF,FF,FF
21393827,00000024,false,Rx,0,5,A9,F9,2F,22,0B,00,00,00
21403808,00000037,false,Rx,0,8,FF,0F,02,64,89,A9,1D,48
21413811,0000002E,false,Rx,0,8,00,FC,FF,FF,FF,FF,FF,FF
21423818,00000020,false,Rx,0,6,00,44,0B,00,E0,FF,00,00
21433812,00000026,false,Rx,0,8,39,C5,00,00,00,AA,00,00
21443813,0000000A,false,Rx,0,6,94,00,50,2E,FE,FF,00,00
21453813,0000000E,false,Rx,0,8,AA,FD,E4,FF,D0,3F,00,FF
21463813,0000002A,false,Rx,0,8,D2,F6,FF,FF,17,79,4C,FF
21473804,0000000B,false,Rx,0,8,54,69,55,00,CB,10,00,04
21483814,0000003C,false,Rx,0,8,39,03,22,F1,8C,FF,FF,FF
21493805,00000013,false,Rx,0,8,00,D0,00,07,9F,57,00,FF
21503812,00000024,false,Rx,0,5,AA,F9,2F,22,0A,00,00,00
21533813,00000020,false,Rx,0,6,00,44,0B,00,E0,FF,00,00
21543807,0000003D,false,Rx,0,8,39,10,17,62,F1,8C,31,45
21553837,00000026,false,Rx,0,8,39,C5,00,00,00,AA,00,00
21563808,00000010,false,Rx,0,8,CE,01,00,01,00,00,C0,32
21583806,0000002B,false,Rx,0,8,00,00,00,00,FE,8B,0B,FE
21593813,0000000B,false,Rx,0,8,55,A5,55,00,CB,10,00,04
21603816,0000003D,false,Rx,0,8,39,21,41,38,31,36,37,39
21613823,00000013,false,Rx,0,8,00,D0,00,07,A1,57,00,FF
21623814,00000024,false,Rx,0,5,AA,F9,2F,22,0A,00,00,00
21633821,00000036,false,Rx,0,8,D3,12,00,AA,FF,C0,1B,E0
21643808,0000002E,false,Rx,0,8,03,FC,FF,FF,FF,FF,FF,FF
21653822,00000020,false,Rx,0,6,00,44,0B,00,E0,FF,00,00
21663809,0000003D,false,Rx,0,8,39,22,37,46,31,34,31,31
21673832,00000026,false,Rx,0,8,39,C5,00,00,00,AA,00,00
21683816,0000000A,false,Rx,0,6,94,00,50,2E,FE,FF,00,00
21693810,00000014,false,Rx,0,0,00,00,00,00,00,00,00,00
21703820,0000002A,false,Rx,0,8,D2,F6,FF,FF,17,7E,4C,FF
21713811,0000000B,false,Rx,0,8,AA,AA,54,00,CB,10,00,04
21723818,0000003D,false,Rx,0,8,39,23,32,30,30,30,35,33
21733828,00000013,false,Rx,0,8,00,D0,00,07,9F,57,00,FF
21743816,00000024,false,Rx,0,5,AB,F9,2F,22,09,00,00,00
21763810,00000028,false,Rx,0,0,00,00,00,00,00,00,00,00
21773820,00000020,false,Rx,0,6,00,44,0B,00,E0,FF,00,00
21783821,00000026,false,Rx,0,8,39,C5,00,00,00,AA,00,00
21793811,00000010,false,Rx,0,8,CE,01,00,01,00,00,00,32
21803821,0000003C,false,Rx,0,8,39,03,22,6C,5D,FF,FF,FF
21813812,00000007,false,Rx,0,0,00,00,00,00,00,00,00,00
21823813,0000002B,false,Rx,0,8,00,00,00,14,FE,8B,0B,FE
21833816,0000000B,false,Rx,0,8,4B,16,55,00,CA,10,00,04
21843817,00000013,false,Rx,0,8,00,D0,00,07,A1,57,00,FF
21853817,00000024,false,Rx,0,5,A8,F9,2F,22,0C,00,00,00
21863817,0000003D,false,Rx,0,8,39,03,7F,22,31,FF,FF,FF
21873834,00000037,false,Rx,0,8,FF,0F,02,64,89,AD,1D,48
21883818,0000002E,false,Rx,0,8,4E,FC,FF,FF,FF,FF,FF,FF
21893825,00000020,false,Rx,0,6,00,44,0B,00,E0,FF,00,00
21903822,00000026,false,Rx,0,8,39,C5,00,00,00,AA,40,00
21913820,0000000A,false,Rx,0,6,94,00,50,2E,FE,FF,00,00
21923823,0000000E,false,Rx,0,8,AA,FD,E4,FF,D0,3F,00,FF
21933820,0000002A,false,Rx,0,8,D2,F6,FF,FF,17,7F,4C,FF
21943814,0000000B,false,Rx,0,8,54,69,55,00,CB,10,00,04
21953821,00000013,false,Rx,0,8,00,D0,00,07,9F,57,00,FF
21963825,0000003C,false,Rx,0,8,39,03,22,F1,97,FF,FF,FF
21973816,00000024,false,Rx,0,5,AB,F9,2F,22,09,00,00,00
22003820,00000020,false,Rx,0,6,00,44,0B,00,E0,FF,00,00
22013824,00000026,false,Rx,0,8,39,C5,00,00,00,AA,40,00
22023818,0000003D,false,Rx,0,8,39,10,10,62,F1,97,4A,38
22033838,00000010,false,Rx,0,8,CE,01,00,01,00,00,00,32
22053813,0000002B,false,Rx,0,8,00,00,00,14,FE,8A,0B,FE
22063823,0000000B,false,Rx,0,8,55,A5,55,00,CB,10,00,04
22073823,00000013,false,Rx,0,8,00,D0,00,07,9F,57,00,FF
22083824,0000003D,false,Rx,0,8,39,21,34,32,20,65,4B,4B
22093834,00000024,false,Rx,0,5,AC,F9,2F,22,08,00,00,00
22103828,00000036,false,Rx,0,8,D3,12,00,AA,FF,C0,1B,E0
22113818,0000002E,false,Rx,0,8,23,FC,FF,FF,FF,FF,FF,FF
22123832,00000020,false,Rx,0,6,00,44,0B,00,E0,FF,00,00
22133826,00000026,false,Rx,0,8,39,C5,00,00,00,AA,40,00
22143820,0000003D,false,Rx,0,8,39,22,20,20,20,20,20,FF
22153843,0000000A,false,Rx,0,6,94,00,50,2E,FE,FF,00,00
22163817,00000014,false,Rx,0,0,00,00,00,00,00,00,00,00
22173827,0000002A,false,Rx,0,8,D2,F6,FF,FF,17,7F,4C,FF
22183818,0000000B,false,Rx,0,8,AA,AA,55,00,CA,10,00,04
22193825,00000013,false,Rx,0,8,00,D0,00,07,9F,57,00,FF
22203826,00000024,false,Rx,0,5,AA,F9,2F,22,0A,00,00,00
22223817,00000028,false,Rx,0,0,00,00,00,00,00,00,00,00
22233827,00000020,false,Rx,0,6,00,44,0B,00,E0,FF,00,00
22243824,0000003C,false,Rx,0,8,39,03,22,6E,5D,FF,FF,FF
22253828,00000026,false,Rx,0,8,39,C5,00,00,00,AA,40,00
22263821,00000010,false,Rx,0,8,CE,01,00,01,00,00,00,32
22273825,00000007,false,Rx,0,0,00,00,00,00,00,00,00,00
22283822,0000002B,false,Rx,0,8,00,00,00,15,FE,8B,0B,FE
22293826,0000000B,false,Rx,0,8,4B,16,55,00,CB,10,00,04
22303827,0000003D,false,Rx,0,8,39,03,7F,22,31,FF,FF,FF
22313843,00000013,false,Rx,0,8,00,D0,00,07,9F,57,00,FF
22323827,00000024,false,Rx,0,5,AA,F9,2F,22,0A,00,00,00
22333825,00000037,false,Rx,0,8,FF,0F,02,64,89,AD,1D,48
22343828,0000002E,false,Rx,0,8,17,FC,FF,FF,FF,FF,FF,FF
22353835,00000020,false,Rx,0,6,00,44,0B,00,E0,FF,00,00
22363829,00000026,false,Rx,0,8,39,C5,00,00,00,AA,40,00
22373829,0000000A,false,Rx,0,6,94,00,50,2E,FE,FF,00,00
22383830,0000000E,false,Rx,0,8,AA,FD,E4,FF,D0,3F,00,FF
22393830,0000002A,false,Rx,0,8,D2,F6,FF,FF,17,7F,4C,FF
22403828,0000003C,false,Rx,0,8,39,03,22,F1,7C,FF,FF,FF
22413822,0000000B,false,Rx,0,8,54,69,55,00,CA,10,00,04
22423828,00000013,false,Rx,0,8,00,D0,00,07,9F,57,00,FF
22433829,00000024,false,Rx,0,5,AC,F9,2F,22,08,00,00,00
22463820,0000003D,false,Rx,0,8,39,10,1A,62,F1,7C,56,43
22473853,00000020,false,Rx,0,6,00,44,0B,00,E0,FF,00,00
22483831,00000026,false,Rx,0,8,39,C5,00,00,00,AA,40,00
22493825,00000010,false,Rx,0,8,CE,01,00,01,00,00,00,32
22513823,0000002B,false,Rx,0,8,00,00,00,17,FE,8A,0B,FE
22523833,0000003D,false,Rx,0,8,39,21,50,2D,37,35,37,31
22533840,0000000B,false,Rx,0,8,55,A5,55,00,CB,10,00,04
22543830,00000013,false,Rx,0,8,00,D0,00,07,A1,57,00,FF
22553831,00000024,false,Rx,0,5,AB,F9,2F,22,09,00,00,00
22563838,00000036,false,Rx,0,8,D3,12,00,AA,FF,C0,1B,E0
22573825,0000002E,false,Rx,0,8,1D,FC,FF,FF,FF,FF,FF,FF
22583832,0000003D,false,Rx,0,8,39,22,34,2E,31,31,2E,32
22593849,00000020,false,Rx,0,6,00,44,0B,00,E0,FF,00,00
22603836,00000026,false,Rx,0,8,39,C5,00,00,00,AA,40,00
22613833,0000000A,false,Rx,0,6,94,00,50,2E,FE,FF,00,00
22623827,00000014,false,Rx,0,0,00,00,00,00,00,00,00,00
22633834,0000002A,false,Rx,0,8,D2,F6,FF,FF,17,7F,4C,FF
22643828,0000003D,false,Rx,0,8,39,23,30,30,30,30,31,30
22653842,0000000B,false,Rx,0,8,AA,AA,55,00,CB,10,00,04
22663832,00000013,false,Rx,0,8,00,D0,00,07,9F,57,00,FF
22673833,00000024,false,Rx,0,5,AB,F9,2F,22,09,00,00,00
22693824,00000028,false,Rx,0,0,00,00,00,00,00,00,00,00
22703831,0000003D,false,Rx,0,8,39,24,30,35,33,FF,FF,FF
22713851,00000020,false,Rx,0,6,00,44,0B,00,E0,FF,00,00
22723838,00000026,false,Rx,0,8,39,C5,00,00,00,AA,40,00
22733829,00000010,false,Rx,0,8,CE,01,00,01,00,00,00,32
22743836,00000007,false,Rx,0,0,00,00,00,00,00,00,00,00
22753830,0000002B,false,Rx,0,8,00,00,00,19,FE,8A,0B,FE
22763833,0000000B,false,Rx,0,8,4B,16,55,00,CB,10,00,04
22773834,00000013,false,Rx,0,8,00,D0,00,07,9F,57,00,FF
22783834,00000024,false,Rx,0,5,AA,F9,2F,22,0A,00,00,00
22793831,00000037,false,Rx,0,8,FF,0F,02,64,89,AD,1D,48
22803838,0000003C,false,Rx,0,8,63,03,22,63,57,FF,FF,FF
22813829,0000002E,false,Rx,0,8,1C,FC,FF,FF,FF,FF,FF,FF
22823846,00000020,false,Rx,0,6,00,44,0B,00,E0,FF,00,00
22833836,00000026,false,Rx,0,8,39,C5,00,00,00,AA,50,00
22843840,0000000A,false,Rx,0,6,94,00,50,2E,FE,FF,00,00
22853837,0000000E,false,Rx,0,8,AA,FD,E4,FF,D0,3F,00,FF
22863831,0000003D,false,Rx,0,8,63,03,7F,22,31,FF,FF,FF
22873861,0000002A,false,Rx,0,8,D2,F6,FF,FF,17,7F,4C,FF
22883832,0000000B,false,Rx,0,8,54,69,55,00,CA,10,00,04
22893836,00000013,false,Rx,0,8,00,D0,00,07,9F,57,00,FF
22903836,00000024,false,Rx,0,5,AB,F9,2F,22,09,00,00,00
22933837,00000020,false,Rx,0,6,00,44,0B,00,E0,FF,00,00
22943841,00000026,false,Rx,0,8,39,C5,00,00,00,AA,50,00
22953832,00000010,false,Rx,0,8,CE,01,00,01,00,00,40,32
22973832,0000003C,false,Rx,0,8,63,03,22,F1,87,FF,FF,FF
22983833,0000002B,false,Rx,0,8,00,00,00,1B,FE,89,0B,FE
22993840,0000000B,false,Rx,0,8,55,A5,55,00,CB,10,00,04
23003840,00000013,false,Rx,0,8,00,D0,00,07,A1,57,00,FF
23013837,00000024,false,Rx,0,5,AA,F9,2F,22,0A,00,00,00
23023838,0000003D,false,Rx,0,8,63,10,0E,62,F1,87,31,45
23033864,00000036,false,Rx,0,8,D3,12,00,AA,FF,C0,1B,E0
23043835,0000002E,false,Rx,0,8,34,FC,FF,FF,FF,FF,FF,FF
23053849,00000020,false,Rx,0,6,00,44,0B,00,E0,FF,00,00
23063843,00000026,false,Rx,0,8,39,C5,00,00,00,AA,50,00
23073843,0000000A,false,Rx,0,6,94,00,50,2E,FE,FF,00,00
23083834,0000003D,false,Rx,0,8,63,21,41,39,36,33,35,38
23093851,00000014,false,Rx,0,0,00,00,00,00,00,00,00,00
23103844,0000002A,false,Rx,0,8,D2,F6,FF,FF,17,7F,4C,FF
23113835,0000000B,false,Rx,0,8,AA,AA,55,00,CA,10,00,04
23123842,00000013,false,Rx,0,8,00,D0,00,07,9F,57,00,FF
23133839,00000024,false,Rx,0,5,AB,F9,2F,22,09,00,00,00
23153834,0000003D,false,Rx,0,8,63,22,31,43,20,FF,FF,FF
23163850,00000028,false,Rx,0,0,00,00,00,00,00,00,00,00
23173844,00000020,false,Rx,0,6,00,44,0B,00,E0,FF,00,00
23183845,00000026,false,Rx,0,8,39,C5,00,00,00,AA,50,00
23193835,00000010,false,Rx,0,8,CE,01,00,01,00,00,40,32
23203842,00000007,false,Rx,0,0,00,00,00,00,00,00,00,00
23213836,0000002B,false,Rx,0,8,00,00,00,1E,FE,89,0B,FE
23223843,0000000B,false,Rx,0,8,4B,16,55,00,CB,10,00,04
23233843,00000013,false,Rx,0,8,00,D0,00,07,9F,57,00,FF
23243847,0000003C,false,Rx,0,8,63,03,22,65,57,FF,FF,FF
23253838,00000024,false,Rx,0,5,AB,F9,2F,22,09,00,00,00
23263842,00000037,false,Rx,0,8,FF,0F,02,64,8A,B1,1D,48
23273842,0000002E,false,Rx,0,8,27,FC,FF,FF,FF,FF,FF,FF
23283852,00000020,false,Rx,0,6,00,44,0B,00,E0,FF,00,00
23293846,00000026,false,Rx,0,8,39,C5,00,00,00,AA,60,00
23303840,0000003D,false,Rx,0,8,63,03,7F,22,31,FF,FF,FF
23313866,0000000A,false,Rx,0,6,94,00,50,2E,FE,FF,00,00
23323847,0000000E,false,Rx,0,8,AA,FD,E4,FF,D0,3F,00,FF
23333848,0000002A,false,Rx,0,8,D2,F6,FF,FF,17,7F,4C,FF
23343838,0000000B,false,Rx,0,8,54,69,55,00,CA,10,00,04
23353845,00000013,false,Rx,0,8,00,D0,00,07,A1,57,00,FF
23363846,00000024,false,Rx,0,5,AA,F9,2F,22,0A,00,00,00
23393844,00000020,false,Rx,0,6,00,44,0B,00,E0,FF,00,00
23403844,0000003C,false,Rx,0,8,63,03,22,F1,89,FF,FF,FF
23413848,00000026,false,Rx,0,8,39,C5,00,00,00,AA,60,00
23423839,00000010,false,Rx,0,8,CE,01,00,01,00,00,40,32
23443840,0000002B,false,Rx,0,8,00,00,00,20,FE,8A,0B,FE
23453846,0000000B,false,Rx,0,8,55,A5,55,00,CA,10,00,04
23463847,0000003D,false,Rx,0,8,63,10,07,62,F1,89,30,31
23473864,00000013,false,Rx,0,8,00,D0,00,07,9F,57,00,FF
23483848,00000024,false,Rx,0,5,AC,F9,2F,22,08,00,00,00
23493851,00000036,false,Rx,0,8,D3,12,00,AA,FF,C0,1B,E0
23503842,0000002E,false,Rx,0,8,26,FC,FF,FF,FF,FF,FF,FF
23513856,00000020,false,Rx,0,6,00,44,0B,00,E0,FF,00,00
23523843,0000003D,false,Rx,0,8,63,21,36,30,FF,FF,FF,FF
23533866,00000026,false,Rx,0,8,39,C5,00,00,00,AA,60,00
23543850,0000000A,false,Rx,0,6,94,00,50,2E,FE,FF,00,00
23553841,00000014,false,Rx,0,0,00,00,00,00,00,00,00,00
23563851,0000002A,false,Rx,0,8,D2,F6,FF,FF,17,7F,4C,FF
23573842,0000000B,false,Rx,0,8,AA,AA,55,00,CB,10,00,04
23583849,00000013,false,Rx,0,8,00,D0,00,07,9F,57,00,FF
23593849,00000024,false,Rx,0,5,AC,F9,2F,22,08,00,00,00
23613844,0000003C,false,Rx,0,8,63,03,22,67,57,FF,FF,FF
23623844,00000028,false,Rx,0,0,00,00,00,00,00,00,00,00
23633854,00000020,false,Rx,0,6,00,44,0B,00,E0,FF,00,00
23643851,00000026,false,Rx,0,8,39,C5,00,00,00,AA,60,00
23653845,00000010,false,Rx,0,8,CE,01,00,01,00,00,40,32
23663852,0000003D,false,Rx,0,8,63,03,7F,22,31,FF,FF,FF
23673866,00000007,false,Rx,0,0,00,00,00,00,00,00,00,00
23683847,0000002B,false,Rx,0,8,00,00,00,22,FE,89,0B,FE
23693850,0000000B,false,Rx,0,8,4B,16,55,00,CC,10,00,04
23703851,00000013,false,Rx,0,8,00,D0,00,07,9F,57,00,FF
23713851,00000024,false,Rx,0,5,AB,F9,2F,22,09,00,00,00
23723848,00000037,false,Rx,0,8,FF,0F,02,64,89,AD,1D,48
23733852,0000002E,false,Rx,0,8,26,FC,FF,FF,FF,FF,FF,FF
23743859,00000020,false,Rx,0,6,00,44,0B,00,E0,FF,00,00
23753853,00000026,false,Rx,0,8,39,C5,00,00,00,AA,60,00
23763850,0000003C,false,Rx,0,8,63,03,22,F1,91,FF,FF,FF
23773854,0000000A,false,Rx,0,6,94,00,50,2E,FE,FF,00,00
23783854,0000000E,false,Rx,0,8,AA,FD,E4,FF,D0,3F,00,FF
23793855,0000002A,false,Rx,0,8,D2,F6,FF,FF,17,7F,4C,FF
23803848,0000000B,false,Rx,0,8,54,69,55,00,CB,10,00,04
23813852,00000013,false,Rx,0,8,00,D0,00,07,9F,57,00,FF
23823856,0000003D,false,Rx,0,8,63,10,0E,62,F1,91,31,45
23833869,00000024,false,Rx,0,5,AA,F9,2F,22,0A,00,00,00
23863854,00000020,false,Rx,0,6,00,44,0B,00,E0,FF,00,00
23873855,00000026,false,Rx,0,8,39,C5,00,00,00,AA,60,00
23883849,0000003D,false,Rx,0,8,63,21,41,39,36,33,35,38
23893865,00000010,false,Rx,0,8,CE,01,00,01,00,00,80,32
23913847,0000002B,false,Rx,0,8,00,00,00,25,FE,89,0B,FE
23923854,0000000B,false,Rx,0,8,55,A5,55,00,CA,10,00,04
23933854,00000013,false,Rx,0,8,00,D0,00,07,9F,57,00,FF
23943858,0000003D,false,Rx,0,8,63,22,31,43,20,FF,FF,FF
23953865,00000024,false,Rx,0,5,AA,F9,2F,22,0A,00,00,00
23963862,00000036,false,Rx,0,8,D3,12,00,AA,FF,C0,1B,E0
23973849,0000002E,false,Rx,0,8,29,FC,FF,FF,FF,FF,FF,FF
23983866,00000020,false,Rx,0,6,00,44,0B,00,E0,FF,00,00
23993860,00000026,false,Rx,0,8,39,C5,0A,0A,00,AA,70,00
24003860,0000000A,false,Rx,0,6,94,00,50,2E,FE,FF,00,00
24013851,00000014,false,Rx,0,0,00,00,00,00,00,00,00,00
24023861,0000002A,false,Rx,0,8,D2,F6,FF,FF,17,7F,4C,FF
24033852,0000000B,false,Rx,0,8,AA,AA,56,00,CB,10,00,04
24043859,0000003C,false,Rx,0,8,63,03,22,69,57,FF,FF,FF
24053853,00000013,false,Rx,0,8,09,CF,00,07,9D,57,00,FF
24063860,00000024,false,Rx,0,5,AA,F9,2F,22,0A,00,00,00
24083851,00000028,false,Rx,0,0,00,00,00,00,00,00,00,00
24093861,00000020,false,Rx,0,6,00,44,0B,00,E0,FF,00,00
24103855,0000003D,false,Rx,0,8,63,03,7F,22,31,FF,FF,FF
24113881,00000026,false,Rx,0,8,39,C5,0B,0B,00,AA,70,00
24123852,00000010,false,Rx,0,8,CE,01,00,01,00,00,80,32
24133859,00000007,false,Rx,0,0,00,00,00,00,00,00,00,00
24143856,0000002B,false,Rx,0,8,00,00,00,27,FE,89,0B,FE
24153860,0000000B,false,Rx,0,8,4B,16,55,00,CA,10,00,04
24163861,00000013,false,Rx,0,8,06,CF,00,07,A1,57,00,FF
24173858,00000024,false,Rx,0,5,AC,F9,2F,22,08,00,00,00
24183858,00000037,false,Rx,0,8,FF,0F,02,64,89,B1,1D,48
24193859,0000002E,false,Rx,0,8,35,FC,FF,FF,FF,FF,FF,FF
24203866,0000003C,false,Rx,0,8,63,03,22,F1,A3,FF,FF,FF
24213863,00000020,false,Rx,0,6,00,44,0B,00,E0,FF,00,00
24223863,00000026,false,Rx,0,8,39,C5,0C,0C,00,AA,70,00
24233864,0000000A,false,Rx,0,6,94,00,50,2E,FE,FF,00,00
24243864,0000000E,false,Rx,0,8,AA,FD,E4,FF,D0,3F,00,FF
24253864,0000002A,false,Rx,0,8,D2,F6,FF,FF,17,7F,4C,FF
24263855,0000003D,false,Rx,0,8,63,06,62,F1,A3,30,31,30
24273878,0000000B,false,Rx,0,8,54,69,55,00,CB,10,00,04
24283862,00000013,false,Rx,0,8,06,CF,00,07,9F,57,00,FF
24293860,00000024,false,Rx,0,5,AB,F9,2F,22,09,00,00,00
24323861,00000020,false,Rx,0,6,00,44,0B,00,E0,FF,00,00
24333865,00000026,false,Rx,0,8,39,C5,0E,0E,00,AA,70,00
24343859,00000010,false,Rx,0,8,CE,01,00,01,00,00,80,32
24363859,0000003C,false,Rx,0,8,63,03,22,6B,57,FF,FF,FF
24373857,0000002B,false,Rx,0,8,00,00,00,29,FE,89,0B,FE
24383863,0000000B,false,Rx,0,8,55,A5,54,00,CA,10,00,04
24393864,00000013,false,Rx,0,8,08,CF,00,07,9F,57,00,FF
24403864,00000024,false,Rx,0,5,AC,F9,2F,22,08,00,00,00
24413868,00000036,false,Rx,0,8,D3,12,00,AA,FF,C0,1B,E0
24423859,0000003D,false,Rx,0,8,63,03,7F,22,31,FF,FF,FF
24433879,0000002E,false,Rx,0,8,27,FC,FF,FF,FF,FF,FF,FF
24443873,00000020,false,Rx,0,6,00,44,0B,00,E0,FF,00,00
24453866,00000026,false,Rx,0,8,39,C5,0F,0F,00,AA,80,00
24463867,0000000A,false,Rx,0,6,94,00,50,2E,FE,FF,00,00
24473858,00000014,false,Rx,0,0,00,00,00,00,00,00,00,00
24483868,0000002A,false,Rx,0,8,D2,F6,FF,FF,17,7F,4C,FF
24493858,0000000B,false,Rx,0,8,AA,AA,55,00,CA,10,00,04
24503865,00000013,false,Rx,0,8,09,CF,00,07,A1,57,00,FF
24513866,00000024,false,Rx,0,5,AB,F9,2F,22,09,00,00,00
24533860,0000003C,false,Rx,0,8,63,03,22,F1,8C,FF,FF,FF
24543861,00000028,false,Rx,0,0,00,00,00,00,00,00,00,00
24553871,00000020,false,Rx,0,6,00,44,0B,00,E0,FF,00,00
24563868,00000026,false,Rx,0,8,39,C5,10,10,00,AA,80,00
24573862,00000010,false,Rx,0,8,CE,01,00,01,00,00,80,32
24583869,0000003D,false,Rx,0,8,63,10,17,62,F1,8C,35,33
24593882,00000007,false,Rx,0,0,00,00,00,00,00,00,00,00
24603863,0000002B,false,Rx,0,8,00,00,00,2C,FE,89,0B,FE
24613867,0000000B,false,Rx,0,8,4B,16,56,00,CA,10,00,04
24623867,00000013,false,Rx,0,8,09,CF,00,07,9D,57,00,FF
24633868,00000024,false,Rx,0,5,AA,F9,2F,22,0A,00,00,00
24643865,0000003D,false,Rx,0,8,63,21,39,30,32,32,30,41
24653878,00000037,false,Rx,0,8,FF,0F,02,64,8A,B1,1D,48
24663869,0000002E,false,Rx,0,8,2B,FC,FF,FF,FF,FF,FF,FF
24673876,00000020,false,Rx,0,6,00,44,0B,00,E0,FF,00,00
24683870,00000026,false,Rx,0,8,39,C5,11,11,00,AA,80,00
24693870,0000000A,false,Rx,0,6,94,00,50,2E,FE,FF,00,00
24703864,0000003D,false,Rx,0,8,63,22,41,32,30,33,33,30
24713887,0000000E,false,Rx,0,8,AA,FD,E4,FF,D0,3F,00,FF
24723872,0000002A,false,Rx,0,8,D2,F6,FF,FF,17,7F,4C,FF
24733862,0000000B,false,Rx,0,8,54,69,55,00,CB,10,00,04
24743869,00000013,false,Rx,0,8,09,CF,04,07,A1,57,55,FF
24753870,00000024,false,Rx,0,5,A9,F9,2F,22,0B,00,00,00
24783864,0000003D,false,Rx,0,8,63,23,30,30,30,31,30,35
24793891,00000020,false,Rx,0,6,00,44,0B,00,E0,FF,00,00
24803875,00000026,false,Rx,0,8,39,C5,12,12,00,AA,80,00
24813866,00000010,false,Rx,0,8,CE,01,00,01,00,00,80,32
24833863,0000002B,false,Rx,0,8,00,00,00,2E,FE,8B,0B,FE
24843870,0000000B,false,Rx,0,8,55,A5,55,00,CB,10,00,04
24853871,00000013,false,Rx,0,8,0A,CF,04,07,9D,57,55,FF
24863871,00000024,false,Rx,0,5,A9,F9,2F,22,0B,00,00,00
24873878,00000036,false,Rx,0,8,D2,12,00,AA,FF,C0,1B,E0
24883872,0000003C,false,Rx,0,8,63,03,22,6D,57,FF,FF,FF
24893866,0000002E,false,Rx,0,8,38,FC,FF,FF,FF,FF,FF,FF
24903883,00000020,false,Rx,0,6,00,44,0B,00,E0,FF,00,00
24913873,00000026,false,Rx,0,8,39,C5,13,12,00,AA,90,00
24923877,0000000A,false,Rx,0,6,94,00,50,2E,FE,FF,00,00
24933868,00000014,false,Rx,0,0,00,00,00,00,00,00,00,00
24943868,0000003D,false,Rx,0,8,63,03,7F,22,31,FF,FF,FF
24953898,0000002A,false,Rx,0,8,D2,F6,FF,FF,17,7F,4C,FF
24963869,0000000B,false,Rx,0,7,AA,AA,54,00,10,00,04,00
24973873,00000013,false,Rx,0,8,09,CF,04,07,A1,57,55,FF
24983873,00000024,false,Rx,0,5,AB,F9,2F,22,09,00,00,00
25003867,00000028,false,Rx,0,0,00,00,00,00,00,00,00,00
25013877,00000020,false,Rx,0,6,00,44,0B,00,E0,FF,00,00
25023878,00000026,false,Rx,0,8,39,C5,14,13,00,AA,90,00
25033869,00000010,false,Rx,0,8,CE,01,00,01,00,00,C0,32
25043879,0000003C,false,Rx,0,8,63,03,22,F1,97,FF,FF,FF
25053869,00000007,false,Rx,0,0,00,00,00,00,00,00,00,00
25063870,0000002B,false,Rx,0,8,00,00,00,30,FE,8A,0B,FE
25073877,0000000B,false,Rx,0,8,4B,16,55,00,CA,10,00,04
25083877,00000013,false,Rx,0,8,0A,CF,04,07,9D,57,55,FF
25093874,00000024,false,Rx,0,5,AB,F9,2F,22,09,00,00,00
25103875,0000003D,false,Rx,0,8,63,10,10,62,F1,97,30,31
25113892,00000037,false,Rx,0,8,FF,0F,02,64,8A,B1,1D,48
25123876,0000002E,false,Rx,0,8,37,FC,FF,FF,FF,FF,FF,FF
25133886,00000020,false,Rx,0,6,00,44,0B,00,E0,FF,00,00
25143880,00000026,false,Rx,0,8,39,C5,15,15,00,AA,90,00
25153880,0000000A,false,Rx,0,6,94,00,50,2E,FE,FF,00,00
25163871,0000003D,false,Rx,0,8,63,21,32,33,34,35,36,37
25173897,0000000E,false,Rx,0,8,AA,FD,E4,FF,D0,3F,00,FF
25183882,0000002A,false,Rx,0,8,D2,F6,FF,FF,17,7F,4C,FF
25193872,0000000B,false,Rx,0,8,54,69,55,00,CB,10,00,04
25203879,00000013,false,Rx,0,8,09,CF,04,07,9F,57,55,FF
25213876,00000024,false,Rx,0,5,AA,F9,2F,22,0A,00,00,00
25243871,0000003D,false,Rx,0,8,63,22,38,39,30,31,32,FF
25253897,00000020,false,Rx,0,6,00,44,0B,00,E0,FF,00,00
25263882,00000026,false,Rx,0,8,39,C5,16,16,00,AA,90,00
25273872,00000010,false,Rx,0,8,CE,01,00,01,00,00,C0,32
25293870,0000002B,false,Rx,0,8,00,00,00,33,FE,8B,0B,FE
25303880,0000000B,false,Rx,0,8,55,A5,55,00,CA,10,00,04
25313881,00000013,false,Rx,0,8,0A,CF,04,07,9D,57,55,FF
25323884,0000003C,false,Rx,0,8,63,03,22,6F,57,FF,FF,FF
25333875,00000024,false,Rx,0,5,AA,F9,2F,22,0A,00,00,00
25343885,00000036,false,Rx,0,8,D2,12,00,AA,FF,C0,1B,E0
25353876,0000002E,false,Rx,0,8,3A,FC,FF,FF,FF,FF,FF,FF
25363889,00000020,false,Rx,0,6,00,44,0B,00,E0,FF,00,00
25373883,00000026,false,Rx,0,8,39,C5,17,17,00,AA,A0,00
25383877,0000003D,false,Rx,0,8,63,03,7F,22,31,FF,FF,FF
25393904,0000000A,false,Rx,0,6,94,00,50,2E,FE,FF,00,00
25403875,00000014,false,Rx,0,0,00,00,00,00,00,00,00,00
25413885,0000002A,false,Rx,0,8,D2,F6,FF,FF,17,7F,4C,FF
25423876,0000000B,false,Rx,0,8,AA,AA,55,00,CB,10,00,04
25433883,00000013,false,Rx,0,8,0A,CF,04,07,9F,57,55,FF
25443883,00000024,false,Rx,0,5,A9,F9,2F,22,0B,00,00,00
25463874,00000028,false,Rx,0,0,00,00,00,00,00,00,00,00
25473888,00000020,false,Rx,0,6,00,44,0B,00,E0,FF,00,00
25483881,0000003C,false,Rx,0,8,63,03,22,F1,7C,FF,FF,FF
25493885,00000026,false,Rx,0,8,39,C5,18,17,00,AA,A0,00
25503876,00000010,false,Rx,0,8,CE,01,00,01,00,00,C0,32
25513883,00000007,false,Rx,0,0,00,00,00,00,00,00,00,00
25523880,0000002B,false,Rx,0,8,00,00,01,35,FE,8B,0B,FE
25533884,0000000B,false,Rx,0,8,4B,16,55,00,CB,10,00,04
25543884,0000003D,false,Rx,0,8,63,10,1A,62,F1,7C,56,4C
25553901,00000013,false,Rx,0,8,0A,CF,04,07,A1,57,55,FF
25563885,00000024,false,Rx,0,5,AB,F9,2F,22,09,00,00,00
25573882,00000037,false,Rx,0,8,FF,0F,02,64,89,B1,1D,48
25583886,0000002E,false,Rx,0,8,37,FC,FF,FF,FF,FF,FF,FF
25593893,00000020,false,Rx,0,6,00,44,0B,00,E0,FF,00,00
25603880,0000003D,false,Rx,0,8,63,21,31,2D,48,56,36,32
25613903,00000026,false,Rx,0,8,39,C5,19,18,00,AA,A0,00
25623888,0000000A,false,Rx,0,6,94,00,50,2E,FE,FF,00,00
25633888,0000000E,false,Rx,0,8,AA,FD,E4,FF,D0,3F,00,FF
25643888,0000002A,false,Rx,0,8,D2,F6,FF,FF,17,7F,4C,FF
25653879,0000000B,false,Rx,0,8,54,69,55,00,CB,10,00,04
25663886,0000003D,false,Rx,0,8,63,22,35,2E,31,31,2E,32
25673896,00000013,false,Rx,0,8,0A,CF,04,07,9D,57,55,FF
25683887,00000024,false,Rx,0,5,AC,F9,2F,22,08,00,00,00
25713888,00000020,false,Rx,0,6,00,44,0B,00,E0,FF,00,00
25723882,0000003D,false,Rx,0,8,63,23,30,30,41,30,31,30
25733905,00000026,false,Rx,0,8,39,C5,1A,1A,00,AA,A0,00
25743883,00000010,false,Rx,0,8,CE,01,00,01,00,00,C0,32
25763881,0000002B,false,Rx,0,8,00,00,01,37,FE,8C,0B,FE
25773887,0000000B,false,Rx,0,8,55,A5,55,00,CB,10,00,04
25783888,0000003D,false,Rx,0,8,63,24,31,30,35,FF,FF,FF
25793898,00000013,false,Rx,0,8,0B,CF,04,07,A1,57,55,FF
25803889,00000024,false,Rx,0,5,AB,F9,2F,22,09,00,00,00
25813892,00000036,false,Rx,0,8,D2,12,00,AA,FF,C0,1B,E0
25823883,0000002E,false,Rx,0,8,36,FC,FF,FF,FF,FF,FF,FF
25833897,00000020,false,Rx,0,6,00,44,0B,00,E0,FF,00,00
25843890,00000026,false,Rx,0,8,39,C5,1B,1A,00,AA,B0,00
25853891,0000000A,false,Rx,0,6,94,00,50,2E,FE,FF,00,00
25863885,00000014,false,Rx,0,0,00,00,00,00,00,00,00,00
25873892,0000002A,false,Rx,0,8,D2,F6,FF,FF,17,7F,4C,FF
25883886,0000000B,false,Rx,0,8,AA,AA,55,00,CB,10,00,04
25893889,00000013,false,Rx,0,8,0B,CF,04,07,9F,57,55,FF
25903890,00000024,false,Rx,0,5,A9,F9,2F,22,0B,00,00,00
25923887,0000003C,false,Rx,0,8,64,03,22,63,58,FF,FF,FF
25933885,00000028,false,Rx,0,0,00,00,00,00,00,00,00,00
25943895,00000020,false,Rx,0,6,00,44,0B,00,E0,FF,00,00
25953892,00000026,false,Rx,0,8,39,C5,1C,1B,00,AA,B0,00
25963886,00000010,false,Rx,0,8,CE,01,00,01,00,00,C0,32
25973893,00000007,false,Rx,0,0,00,00,00,00,00,00,00,00
25983887,0000003D,false,Rx,0,8,64,10,0E,62,63,58,35,57
25993907,0000002B,false,Rx,0,8,00,00,01,39,FE,8C,0B,FE
26003894,0000000B,false,Rx,0,8,4B,16,55,00,CA,10,00,04
26013891,00000013,false,Rx,0,8,0A,CF,04,07,9F,57,55,FF
26023892,00000024,false,Rx,0,5,AB,F9,2F,22,09,00,00,00
26033889,00000037,false,Rx,0,8,FF,0F,02,64,8A,AD,1D,48
26043893,0000003D,false,Rx,0,7,64,21,41,30,37,35,32,00
26053903,0000002E,false,Rx,0,8,36,FC,FF,FF,FF,FF,FF,FF
26063903,00000020,false,Rx,0,6,00,44,0B,00,E0,FF,00,00
26073897,00000026,false,Rx,0,8,39,C5,1C,1C,00,AA,B0,00
26083897,0000000A,false,Rx,0,6,94,00,50,2E,FE,FF,00,00
26093895,0000000E,false,Rx,0,8,AA,FD,E4,FF,D0,3F,00,FF
26103889,0000003D,false,Rx,0,8,64,22,37,20,20,FF,FF,FF
26113912,0000002A,false,Rx,0,8,D2,F6,FF,FF,17,7F,4C,FF
26123890,0000000B,false,Rx,0,8,54,69,55,00,CA,10,00,04
26133893,00000013,false,Rx,0,8,0A,CF,04,07,9F,57,55,FF
26143894,00000024,false,Rx,0,5,AA,F9,2F,22,0A,00,00,00
26173895,00000020,false,Rx,0,6,00,44,0B,00,E0,FF,00,00
26183899,00000026,false,Rx,0,8,39,C5,1D,1C,00,AA,B0,00
26193889,00000010,false,Rx,0,8,CE,01,00,01,00,00,00,32
26213890,0000003C,false,Rx,0,8,64,03,22,65,58,FF,FF,FF
26223891,0000002B,false,Rx,0,7,00,00,02,3C,FE,8C,FE,00
26233898,0000000B,false,Rx,0,8,55,A5,55,00,CA,10,00,04
26243898,00000013,false,Rx,0,8,0B,CF,04,07,9D,57,55,FF
26253895,00000024,false,Rx,0,5,AB,F9,2F,22,09,00,00,00
26263895,0000003D,false,Rx,0,8,64,10,07,62,65,58,30,31
26273922,00000036,false,Rx,0,8,D2,12,00,AA,FF,C0,1B,E0
26283890,0000002E,false,Rx,0,8,3E,FC,FF,FF,FF,FF,FF,FF
26293907,00000020,false,Rx,0,6,00,44,0B,00,E0,FF,00,00
26303900,00000026,false,Rx,0,8,39,C5,1E,1D,00,AA,C0,00
26313901,0000000A,false,Rx,0,6,94,00,50,2E,FE,FF,00,00
26323892,0000003D,false,Rx,0,8,64,21,30,33,FF,FF,FF,FF
26333908,00000014,false,Rx,0,0,00,00,00,00,00,00,00,00
26343902,0000002A,false,Rx,0,8,D2,F6,FF,FF,17,7F,4C,FF
26353893,0000000B,false,Rx,0,8,AA,AA,55,00,CB,10,00,04
26363900,00000013,false,Rx,0,8,0C,CF,04,07,9F,57,55,FF
26373900,00000024,false,Rx,0,5,AC,F9,2F,22,08,00,00,00
26393891,00000028,false,Rx,0,0,00,00,00,00,00,00,00,00
26403898,0000003C,false,Rx,0,8,64,03,22,67,58,FF,FF,FF
26413902,00000020,false,Rx,0,6,00,44,0B,00,E0,FF,00,00
26423902,00000026,false,Rx,0,8,39,C5,1F,1E,00,AA,C0,00
26433919,00000010,false,Rx,0,8,CE,01,00,01,00,00,00,32
26443900,00000007,false,Rx,0,0,00,00,00,00,00,00,00,00
26453897,0000002B,false,Rx,0,8,00,00,02,3E,FE,8D,0B,FE
26463901,0000003D,false,Rx,0,8,64,10,0E,62,67,58,35,57
26473918,0000000B,false,Rx,0,8,4B,16,55,00,CA,10,00,04
26483902,00000013,false,Rx,0,8,0C,CF,04,07,9D,57,55,FF
26493902,00000024,false,Rx,0,5,AC,F9,2F,22,08,00,00,00
26503899,00000037,false,Rx,0,8,FF,0F,02,64,8A,AD,1D,48
26513900,0000002E,false,Rx,0,8,46,FC,FF,FF,FF,FF,FF,FF
26523903,0000003D,false,Rx,0,7,64,21,41,30,37,35,32,00
26533940,00000020,false,Rx,0,6,00,44,0B,00,E0,FF,00,00
26543904,00000026,false,Rx,0,8,39,C5,21,20,00,AA,C0,00
26553905,0000000A,false,Rx,0,6,94,00,50,2E,FE,FF,00,00
26563905,0000000E,false,Rx,0,8,AA,FD,E4,FF,D0,3F,00,FF
26573906,0000002A,false,Rx,0,8,D2,F6,FF,FF,17,7F,4C,FF
26583896,0000003D,false,Rx,0,8,64,22,37,20,20,FF,FF,FF
26593913,0000000B,false,Rx,0,8,54,69,55,00,CB,10,00,04
26603904,00000013,false,Rx,0,8,0C,CF,04,07,A1,57,55,FF
26613904,00000024,false,Rx,0,5,A9,F9,2F,22,0B,00,00,00
26643902,00000020,false,Rx,0,6,00,44,0B,00,E0,FF,00,00
26653906,00000026,false,Rx,0,8,39,C5,22,21,00,AA,C0,00
26663900,00000010,false,Rx,0,8,CE,01,00,01,00,00,00,32
26683901,0000003C,false,Rx,0,8,64,03,22,69,58,FF,FF,FF
26693898,0000002B,false,Rx,0,8,00,00,02,41,FE,8D,0B,FE
26703905,0000000B,false,Rx,0,8,55,A5,55,00,CA,10,00,04
26713905,00000013,false,Rx,0,8,0C,CF,04,07,9D,57,55,FF
26723905,00000024,false,Rx,0,5,AB,F9,2F,22,09,00,00,00
26733909,00000036,false,Rx,0,8,D2,12,00,AA,FF,C0,1B,E0
26743900,0000003D,false,Rx,0,8,64,06,62,69,58,48,30,31
26753923,0000002E,false,Rx,0,8,49,FC,FF,FF,FF,FF,FF,FF
26763914,00000020,false,Rx,0,6,00,44,0B,00,E0,FF,00,00
26773908,00000026,false,Rx,0,8,39,C5,22,21,00,AA,D0,00
26783908,0000000A,false,Rx,0,6,94,00,50,2E,FE,FF,00,00
26793902,00000014,false,Rx,0,0,00,00,00,00,00,00,00,00
26803912,0000002A,false,Rx,0,8,D2,F6,FF,FF,17,7F,4C,FF
26813900,0000000B,false,Rx,0,8,AA,AA,55,00,CA,10,00,04
26823907,00000013,false,Rx,0,8,0E,CF,04,07,A1,57,55,FF
26833907,00000024,false,Rx,0,5,AA,F9,2F,22,0A,00,00,00
26853901,0000003C,false,Rx,0,8,64,03,22,6B,58,FF,FF,FF
26863902,00000028,false,Rx,0,0,00,00,00,00,00,00,00,00
26873912,00000020,false,Rx,0,6,00,44,0B,00,E0,FF,00,00
26883912,00000026,false,Rx,0,8,39,C5,23,22,00,AA,D0,00
26893903,00000010,false,Rx,0,8,CE,01,00,01,00,00,00,32
26903910,0000003D,false,Rx,0,8,64,10,17,62,6B,58,30,30
26913923,00000007,false,Rx,0,0,00,00,00,00,00,00,00,00
26923904,0000002B,false,Rx,0,8,00,00,03,43,FE,8E,0B,FE
26933908,0000000B,false,Rx,0,8,4B,16,55,00,CB,10,00,04
26943908,00000013,false,Rx,0,8,0E,CF,04,07,9D,57,55,FF
26953909,00000024,false,Rx,0,5,AC,F9,2F,22,08,00,00,00
26963909,0000003D,false,Rx,0,8,64,21,30,30,32,32,35,31
26973919,00000037,false,Rx,0,8,FF,0F,02,64,8A,AD,1D,48
26983910,0000002E,false,Rx,0,8,48,FC,FF,FF,FF,FF,FF,FF
26993917,00000020,false,Rx,0,6,00,44,0B,00,E0,FF,00,00
27003914,00000026,false,Rx,0,8,39,C5,24,23,00,AA,D0,00
27013911,0000000A,false,Rx,0,6,94,00,50,2E,FE,FF,00,00
27023905,0000003D,false,Rx,0,8,64,22,30,32,30,31,38,35
27033929,0000000E,false,Rx,0,8,AA,FD,E4,FF,D0,3F,00,FF
27043913,0000002A,false,Rx,0,8,D2,F6,FF,FF,17,7F,4C,FF
27053907,0000000B,false,Rx,0,8,54,69,55,00,CA,10,00,04
27063914,00000013,false,Rx,0,8,0E,CF,04,07,9D,57,55,FF
27073911,00000024,false,Rx,0,5,AA,F9,2F,22,0A,00,00,00
27103905,0000003D,false,Rx,0,8,64,23,37,30,38,35,30,35
27113932,00000020,false,Rx,0,6,00,44,0B,00,E0,FF,00,00
27123913,00000026,false,Rx,0,8,39,C5,25,24,00,AA,D0,00
27133913,00000010,false,Rx,0,8,CE,01,00,01,00,00,00,32
27153904,0000002B,false,Rx,0,8,00,00,03,45,FE,8E,0B,FE
27163915,0000000B,false,Rx,0,8,55,A5,54,00,CB,10,00,04
27173915,00000013,false,Rx,0,8,0D,CF,04,07,9F,57,55,FF
27183912,00000024,false,Rx,0,5,AA,F9,2F,22,0A,00,00,00
27193919,00000036,false,Rx,0,8,D2,12,00,AA,FF,C0,1B,E0
27203913,0000003C,false,Rx,0,8,64,03,22,6D,58,FF,FF,FF
27213907,0000002E,false,Rx,0,8,48,FC,FF,FF,FF,FF,FF,FF
27223924,00000020,false,Rx,0,6,00,44,0B,00,E0,FF,00,00
27233918,00000026,false,Rx,0,8,39,C5,27,26,00,AA,D0,00
27243915,0000000A,false,Rx,0,6,94,00,50,2E,FE,FF,00,00
27253909,00000014,false,Rx,0,0,00,00,00,00,00,00,00,00
27263912,0000003D,false,Rx,0,8,64,10,10,62,6D,58,45,38
27273939,0000002A,false,Rx,0,8,D2,F6,FF,FF,17,7F,4C,FF
27283910,0000000B,false,Rx,0,8,AA,AA,56,00,CC,10,00,04
27293913,00000013,false,Rx,0,8,0D,CF,04,07,9F,57,55,FF
27303918,00000024,false,Rx,0,5,AC,F9,2F,22,08,00,00,00
27323908,0000003D,false,Rx,0,8,64,21,35,37,20,20,20,20
27333925,00000028,false,Rx,0,0,00,00,00,00,00,00,00,00
27343919,00000020,false,Rx,0,6,00,44,0B,00,E0,FF,00,00
27353919,00000026,false,Rx,0,8,39,C5,28,27,00,AA,D0,00
27363910,00000010,false,Rx,0,8,CE,01,00,01,00,00,40,32
27373917,00000007,false,Rx,0,0,00,00,00,00,00,00,00,00
27383914,0000003D,false,Rx,0,8,64,22,20,20,20,20,20,FF
27393928,0000002B,false,Rx,0,8,00,00,03,48,FE,8E,0B,FE
27403919,0000000B,false,Rx,0,8,4B,16,55,00,CB,10,00,04
27413916,00000013,false,Rx,0,8,0E,CF,04,07,A1,57,55,FF
27423916,00000024,false,Rx,0,5,AB,F9,2F,22,09,00,00,00
27433913,00000037,false,Rx,0,8,FF,0F,02,64,8A,AD,1D,48
27443917,0000002E,false,Rx,0,8,54,FC,FF,FF,FF,FF,FF,FF
27453927,00000020,false,Rx,0,6,00,44,0B,00,E0,FF,00,00
27463921,00000026,false,Rx,0,8,39,C5,28,27,00,AA,E0,00
27473921,0000000A,false,Rx,0,6,94,00,50,2E,FE,FF,00,00
27483919,0000003C,false,Rx,0,8,64,03,22,6F,58,FF,FF,FF
27493922,0000000E,false,Rx,0,8,AA,FD,E4,FF,D0,3F,00,FF
27503923,0000002A,false,Rx,0,8,D2,F6,FF,FF,17,7F,4C,FF
27513913,0000000B,false,Rx,0,8,54,69,55,00,CA,10,00,04
27523920,00000013,false,Rx,0,8,0F,CF,04,07,9D,57,55,FF
27533921,00000024,false,Rx,0,5,AA,F9,2F,22,0A,00,00,00
27563912,0000003D,false,Rx,0,8,64,10,1A,62,6F,58,42,58
27573945,00000020,false,Rx,0,6,00,44,0B,00,E0,FF,00,00
27583923,00000026,false,Rx,0,8,39,C5,29,28,00,AA,E0,00
27593914,00000010,false,Rx,0,8,CE,01,00,01,00,00,40,32
27613914,0000003D,false,Rx,0,8,64,21,48,2D,30,30,31,31
27623934,0000002B,false,Rx,0,8,00,00,04,4A,FE,8E,0B,FE
27633922,0000000B,false,Rx,0,8,55,A5,55,00,CA,10,00,04
27643922,00000013,false,Rx,0,8,0F,CF,04,07,9F,57,55,FF
27653922,00000024,false,Rx,0,5,AC,F9,2F,22,08,00,00,00
27663920,0000003D,false,Rx,0,8,64,22,38,2E,31,31,2E,32
27673940,00000036,false,Rx,0,8,D2,12,00,AA,FF,C0,1B,E0
27683918,0000002E,false,Rx,0,8,4C,FC,FF,FF,FF,FF,FF,FF
27693931,00000020,false,Rx,0,6,00,44,0B,00,E0,FF,00,00
27703925,00000026,false,Rx,0,8,39,C5,2A,29,00,AA,E0,00
27713925,0000000A,false,Rx,0,6,94,00,50,2E,FE,FF,00,00
27723919,0000003D,false,Rx,0,8,64,23,30,30,33,35,34,33
27733933,00000014,false,Rx,0,0,00,00,00,00,00,00,00,00
27743926,0000002A,false,Rx,0,8,D2,F6,FF,FF,17,7F,4C,FF
27753917,0000000B,false,Rx,0,8,AA,AA,55,00,CA,10,00,04
27763924,00000013,false,Rx,0,8,10,CF,04,07,9D,57,55,FF
27773925,00000024,false,Rx,0,5,A9,F9,2F,22,0B,00,00,00
27793916,0000003D,false,Rx,0,8,64,24,35,36,37,FF,FF,FF
27803936,00000028,false,Rx,0,0,00,00,00,00,00,00,00,00
27813930,00000020,false,Rx,0,6,00,44,0B,00,E0,FF,00,00
27823927,00000026,false,Rx,0,8,39,C5,2A,29,00,AA,E0,00
27833917,00000010,false,Rx,0,8,CE,01,00,01,00,00,40,32
27843924,00000007,false,Rx,0,0,00,00,00,00,00,00,00,00
27853921,0000002B,false,Rx,0,8,00,00,04,4C,FE,8E,0B,FE
27863925,0000000B,false,Rx,0,8,4B,16,55,00,CA,10,00,04
27873926,00000013,false,Rx,0,8,0F,CF,04,07,9D,57,55,FF
27883926,00000024,false,Rx,0,5,AB,F9,2F,22,09,00,00,00
27893923,00000037,false,Rx,0,8,FF,0F,02,64,8A,AD,1D,48
27903927,0000002E,false,Rx,0,8,56,FC,FF,FF,FF,FF,FF,FF
27913934,00000020,false,Rx,0,6,00,44,0B,00,E0,FF,00,00
27923928,00000026,false,Rx,0,8,39,C5,2B,2A,00,AA,F0,00
27933928,0000000A,false,Rx,0,6,94,00,50,2E,FE,FF,00,00
27943929,0000000E,false,Rx,0,8,AA,FD,E4,FF,D0,3F,00,FF
27953929,0000002A,false,Rx,0,8,D2,F6,FF,FF,17,7F,4C,FF
27963923,0000000B,false,Rx,0,8,54,69,55,00,CB,10,00,04
27973927,00000013,false,Rx,0,8,11,CF,04,07,9D,57,55,FF
27983927,00000024,false,Rx,0,5,AA,F9,2F,22,0A,00,00,00
28013928,00000020,false,Rx,0,6,00,44,0B,00,E0,FF,00,00
28023932,00000026,false,Rx,0,8,39,C5,2C,2B,00,AA,F0,00
28033923,00000010,false,Rx,0,8,CE,01,00,01,00,00,40,32
28053920,0000002B,false,Rx,0,8,00,00,04,4E,FE,8F,0B,FE
28063930,0000000B,false,Rx,0,8,55,A5,55,00,CA,10,00,04
28073928,00000013,false,Rx,0,8,12,CF,04,07,9D,57,55,FF
28083931,00000024,false,Rx,0,5,A9,F9,2F,22,0B,00,00,00
28093935,00000036,false,Rx,0,8,D2,12,00,AA,FF,C0,1B,E0
28103926,0000002E,false,Rx,0,8,57,FC,FF,FF,FF,FF,FF,FF
28113939,00000020,false,Rx,0,6,00,44,0B,00,E0,FF,00,00
28123933,00000026,false,Rx,0,8,39,C5,2C,2B,00,AA,F0,00
28133933,0000000A,false,Rx,0,6,94,00,50,2E,FE,FF,00,00
28143924,00000014,false,Rx,0,0,00,00,00,00,00,00,00,00
28153934,0000002A,false,Rx,0,8,D2,F6,FF,FF,17,7F,4C,FF
28163925,0000000B,false,Rx,0,8,AA,AA,55,00,CA,10,00,04
28173932,00000013,false,Rx,0,8,12,CF,04,07,9D,57,55,FF
28183932,00000024,false,Rx,0,5,AA,F9,2F,22,0A,00,00,00
28203924,00000028,false,Rx,0,0,00,00,00,00,00,00,00,00
28213934,00000020,false,Rx,0,6,00,44,0B,00,E0,FF,00,00
28223934,00000026,false,Rx,0,8,39,C5,2D,2C,00,AA,F0,00
28233925,00000010,false,Rx,0,8,CE,01,00,01,00,00,40,32
28243932,00000007,false,Rx,0,0,00,00,00,00,00,00,00,00
28253929,0000002B,false,Rx,0,8,00,00,05,50,FE,8F,0B,FE
28263932,0000000B,false,Rx,0,8,4B,16,55,00,CA,10,00,04
28273933,00000013,false,Rx,0,8,12,CF,04,07,9D,57,55,FF
28283933,00000024,false,Rx,0,5,AA,F9,2F,22,0A,00,00,00
28293930,00000037,false,Rx,0,8,FF,0F,02,64,8A,B5,1D,48
28303934,0000002E,false,Rx,0,8,55,FC,FF,FF,FF,FF,FF,FF
28313941,00000020,false,Rx,0,6,00,44,0B,00,E0,FF,00,00
28323935,00000026,false,Rx,0,8,39,C5,2D,2C,00,AA,00,01
28333936,0000000A,false,Rx,0,6,94,00,50,2E,FE,FF,00,00
28343936,0000000E,false,Rx,0,8,AA,FD,E4,FF,D0,3F,00,FF
28353936,0000002A,false,Rx,0,8,D2,F6,FF,FF,17,7F,4C,FF
28363930,0000000B,false,Rx,0,8,54,69,55,00,CA,10,00,04
28373934,00000013,false,Rx,0,8,12,CF,04,07,9D,57,55,FF
28383934,00000024,false,Rx,0,5,A9,F9,2F,22,0B,00,00,00
28413936,00000020,false,Rx,0,6,00,44,0B,00,E0,FF,00,00
28423939,00000026,false,Rx,0,8,39,C5,2E,2D,00,AA,00,01
28433930,00000010,false,Rx,0,8,CE,01,00,01,00,00,80,32
28453928,0000002B,false,Rx,0,8,00,00,05,52,FE,8F,0B,FE
28463938,0000000B,false,Rx,0,8,55,A5,55,00,CB,10,00,04
28473935,00000013,false,Rx,0,8,13,CF,04,07,9F,57,55,FF
28483939,00000024,false,Rx,0,5,AB,F9,2F,22,09,00,00,00
28493942,00000036,false,Rx,0,8,D2,12,00,AA,FF,C0,1B,E0
28503933,0000002E,false,Rx,0,8,55,FC,FF,FF,FF,FF,FF,FF
28513946,00000020,false,Rx,0,6,00,44,0B,00,E0,FF,00,00
28523940,00000026,false,Rx,0,8,39,C5,2E,2D,00,AA,00,01
28533941,0000000A,false,Rx,0,6,94,00,50,2E,FE,FF,00,00
28543931,00000014,false,Rx,0,0,00,00,00,00,00,00,00,00
28553942,0000002A,false,Rx,0,8,D2,F6,FF,FF,17,7F,4C,FF
28563932,0000000B,false,Rx,0,8,AA,AA,55,00,CB,10,00,04
28573939,00000013,false,Rx,0,8,13,CF,04,07,9D,57,55,FF
28583940,00000024,false,Rx,0,5,AA,F9,2F,22,0A,00,00,00
28603931,00000028,false,Rx,0,0,00,00,00,00,00,00,00,00
28613941,00000020,false,Rx,0,6,00,44,0B,00,E0,FF,00,00
28623941,00000026,false,Rx,0,8,39,C5,2F,2E,00,AA,00,01
28633932,00000010,false,Rx,0,8,CE,01,00,01,00,00,80,32
28643939,00000007,false,Rx,0,0,00,00,00,00,00,00,00,00
28653936,0000002B,false,Rx,0,8,00,00,06,54,FE,90,0B,FE
28663940,0000000B,false,Rx,0,8,4B,16,56,00,CA,10,00,04
28673940,00000013,false,Rx,0,8,13,CF,04,07,9D,57,55,FF
28683941,00000024,false,Rx,0,5,AB,F9,2F,22,09,00,00,00
28693938,00000037,false,Rx,0,8,FF,0F,02,64,8A,B5,1D,48
28703942,0000002E,false,Rx,0,8,60,FC,FF,FF,FF,FF,FF,FF
28713949,00000020,false,Rx,0,6,00,44,0B,00,E0,FF,00,00
28723943,00000026,false,Rx,0,8,39,C5,30,2F,00,AA,00,01
28733943,0000000A,false,Rx,0,6,94,00,50,2E,FE,FF,00,00
28743943,0000000E,false,Rx,0,8,AA,FD,E4,FF,D0,3F,00,FF
28753944,0000002A,false,Rx,0,8,D2,F6,FF,FF,17,7F,4C,FF
28763938,0000000B,false,Rx,0,8,54,69,55,00,CA,10,00,04
28773941,00000013,false,Rx,0,8,13,CF,04,07,9D,57,55,FF
28783942,00000024,false,Rx,0,5,A9,F9,2F,22,0B,00,00,00
28813943,00000020,false,Rx,0,6,00,44,0B,00,E0,FF,00,00
28823947,00000026,false,Rx,0,8,39,C5,30,2F,00,AA,00,01
28833937,00000010,false,Rx,0,8,CE,01,00,01,00,00,80,32
28853935,0000002B,false,Rx,0,8,00,00,06,56,FE,8F,0B,FE
28863945,0000000B,false,Rx,0,8,55,A5,55,00,CB,10,00,04
28873942,00000013,false,Rx,0,8,13,CF,04,07,9F,57,55,FF
28883943,00000024,false,Rx,0,5,A9,F9,2F,22,0B,00,00,00
28893950,00000036,false,Rx,0,8,D2,12,00,AA,FF,C0,1B,E0
28903941,0000002E,false,Rx,0,8,5B,FC,FF,FF,FF,FF,FF,FF
28913951,00000020,false,Rx,0,6,00,44,0B,00,E0,FF,00,00
28923948,00000026,false,Rx,0,8,38,C5,31,30,00,AA,10,01
28933945,0000000A,false,Rx,0,6,94,00,50,2E,FE,FF,00,00
28943939,00000014,false,Rx,0,0,00,00,00,00,00,00,00,00
28953949,0000002A,false,Rx,0,8,D2,F6,FF,FF,17,7F,4C,FF
28963940,0000000B,false,Rx,0,8,AA,AA,55,00,CA,10,00,04
28973944,00000013,false,Rx,0,8,15,CF,04,07,9D,57,55,FF
28983947,00000024,false,Rx,0,5,AB,F9,2F,22,09,00,00,00
29003938,00000028,false,Rx,0,0,00,00,00,00,00,00,00,00
29013949,00000020,false,Rx,0,6,00,44,0B,00,E0,FF,00,00
29023949,00000026,false,Rx,0,8,39,C5,31,30,00,AA,10,01
29033940,00000010,false,Rx,0,8,CE,01,00,01,00,00,80,32
29043946,00000007,false,Rx,0,0,00,00,00,00,00,00,00,00
29053944,0000002B,false,Rx,0,8,00,00,06,58,FE,90,0B,FE
29063947,0000000B,false,Rx,0,8,4B,16,54,00,CA,10,00,04
29073948,00000013,false,Rx,0,8,15,CF,04,07,9D,57,55,FF
29083948,00000024,false,Rx,0,5,AB,F9,2F,22,09,00,00,00
29093945,00000037,false,Rx,0,8,FF,0F,02,64,8A,B5,1D,48
29103949,0000002E,false,Rx,0,8,5F,FC,FF,FF,FF,FF,FF,FF
29113956,00000020,false,Rx,0,6,00,44,0B,00,E0,FF,00,00
29123950,00000026,false,Rx,0,8,38,C5,32,31,00,AA,10,01
29133950,0000000A,false,Rx,0,6,94,00,50,2E,FE,FF,00,00
29143951,0000000E,false,Rx,0,8,AA,FD,E4,FF,D0,3F,00,FF
29153951,0000002A,false,Rx,0,8,D2,F6,FF,FF,17,7F,4C,FF
29163942,0000000B,false,Rx,0,8,54,69,55,00,CB,10,00,04
29173949,00000013,false,Rx,0,8,15,CF,04,07,9D,57,55,FF
29183949,00000024,false,Rx,0,5,AB,F9,2F,22,09,00,00,00
29213951,00000020,false,Rx,0,6,00,44,0B,00,E0,FF,00,00
29223954,00000026,false,Rx,0,8,38,C5,32,31,00,AA,10,01
29233945,00000010,false,Rx,0,8,CE,01,00,01,00,00,80,32
29253943,0000002B,false,Rx,0,8,00,00,07,5A,FE,90,0B,FE
29263953,0000000B,false,Rx,0,8,55,A5,55,00,CB,10,00,04
29273950,00000013,false,Rx,0,8,15,CF,04,07,9D,57,55,FF
29283950,00000024,false,Rx,0,5,AA,F9,2F,22,0A,00,00,00
29293957,00000036,false,Rx,0,8,D2,12,00,AA,FF,C0,1B,E0
29303945,0000002E,false,Rx,0,8,68,FC,FF,FF,FF,FF,FF,FF
29313958,00000020,false,Rx,0,6,00,44,0B,00,E0,FF,00,00
29323955,00000026,false,Rx,0,8,38,C5,32,32,00,AA,20,01
29333952,0000000A,false,Rx,0,6,94,00,50,2E,FE,FF,00,00
29343946,00000014,false,Rx,0,0,00,00,00,00,00,00,00,00
29353956,0000002A,false,Rx,0,8,D2,F6,FF,FF,17,7F,4C,FF
29363947,0000000B,false,Rx,0,8,AA,AA,55,00,CA,10,00,04
29373951,00000013,false,Rx,0,8,17,CF,04,07,9D,57,55,FF
29383955,00000024,false,Rx,0,5,A9,F9,2F,22,0B,00,00,00
29403946,00000028,false,Rx,0,0,00,00,00,00,00,00,00,00
29413956,00000020,false,Rx,0,6,00,44,0B,00,E0,FF,00,00
29423956,00000026,false,Rx,0,8,38,C5,33,32,00,AA,20,01
29433947,00000010,false,Rx,0,8,CE,01,00,01,00,00,C0,32
29443954,00000007,false,Rx,0,0,00,00,00,00,00,00,00,00
29453948,0000002B,false,Rx,0,8,00,00,07,5C,FE,90,0B,FE
29463955,0000000B,false,Rx,0,8,4B,16,55,00,CA,10,00,04
29473955,00000013,false,Rx,0,8,17,CF,04,07,9D,57,55,FF
29483956,00000024,false,Rx,0,5,AA,F9,2F,22,0A,00,00,00
29493953,00000037,false,Rx,0,8,FF,0F,02,64,8A,B5,1D,48
29503953,0000002E,false,Rx,0,8,68,FC,FF,FF,FF,FF,FF,FF
29513963,00000020,false,Rx,0,6,00,44,0B,00,E0,FF,00,00
29523957,00000026,false,Rx,0,8,38,C5,33,32,00,AA,20,01
29533958,0000000A,false,Rx,0,6,94,00,50,2E,FE,FF,00,00
29543958,0000000E,false,Rx,0,8,AA,FD,E4,FF,D0,3F,00,FF
29553959,0000002A,false,Rx,0,8,D2,F6,FF,FF,17,7F,4C,FF
29563949,0000000B,false,Rx,0,8,54,69,56,00,CA,10,00,04
29573956,00000013,false,Rx,0,8,17,CF,04,07,9D,57,55,FF
29583957,00000024,false,Rx,0,5,AA,F9,2F,22,0A,00,00,00
29613955,00000020,false,Rx,0,6,00,44,0B,00,E0,FF,00,00
29623958,00000026,false,Rx,0,8,38,C5,34,33,00,AA,20,01
29633952,00000010,false,Rx,0,8,CE,01,00,01,00,00,C0,32
29653950,0000002B,false,Rx,0,8,00,00,08,5E,FE,90,0B,FE
29663957,0000000B,false,Rx,0,8,55,A5,55,00,CA,10,00,04
29673957,00000013,false,Rx,0,8,17,CF,04,07,9F,57,55,FF
29683958,00000024,false,Rx,0,5,AB,F9,2F,22,09,00,00,00
29693965,00000036,false,Rx,0,8,D2,12,00,AA,FF,C0,1B,E0
29703952,0000002E,false,Rx,0,8,6B,FC,FF,FF,FF,FF,FF,FF
29713965,00000020,false,Rx,0,6,00,44,0B,00,E0,FF,00,00
29723963,00000026,false,Rx,0,8,38,C5,34,33,00,AA,20,01
29733960,0000000A,false,Rx,0,6,94,00,50,2E,FE,FF,00,00
29743954,00000014,false,Rx,0,0,00,00,00,00,00,00,00,00
29753964,0000002A,false,Rx,0,8,D2,F6,FF,FF,17,7F,4C,FF
29763955,0000000B,false,Rx,0,8,AA,AA,55,00,CA,10,00,04
29773958,00000013,false,Rx,0,8,17,CF,04,07,9D,57,55,FF
29783959,00000024,false,Rx,0,5,AB,F9,2F,22,09,00,00,00
29803953,00000028,false,Rx,0,0,00,00,00,00,00,00,00,00
29813963,00000020,false,Rx,0,6,00,44,0B,00,E0,FF,00,00
29823964,00000026,false,Rx,0,8,38,C5,34,33,00,AA,20,01
29833954,00000010,false,Rx,0,8,CE,01,00,01,00,00,C0,32
29843961,00000007,false,Rx,0,0,00,00,00,00,00,00,00,00
29853955,0000002B,false,Rx,0,8,00,00,08,60,FE,90,0B,FE
29863962,0000000B,false,Rx,0,8,4B,16,55,00,CA,10,00,04
29873963,00000013,false,Rx,0,8,17,CF,04,07,9D,57,55,FF
29883963,00000024,false,Rx,0,5,AB,F9,2F,22,09,00,00,00
29893960,00000037,false,Rx,0,8,FF,0F,02,64,8A,B5,1D,48
29903961,0000002E,false,Rx,0,8,63,FC,FF,FF,FF,FF,FF,FF
29913971,00000020,false,Rx,0,6,00,44,0B,00,E0,FF,00,00
29923965,00000026,false,Rx,0,8,38,C5,35,34,00,AA,30,01
29933965,0000000A,false,Rx,0,6,94,00,50,2E,FE,FF,00,00
29943965,0000000E,false,Rx,0,8,AA,FD,E4,FF,D0,3F,00,FF
29953966,0000002A,false,Rx,0,8,D2,F6,FF,FF,17,7F,4C,FF
29963957,0000000B,false,Rx,0,8,54,69,56,00,CA,10,00,04
29973964,00000013,false,Rx,0,8,19,CF,04,07,9F,57,55,FF
29983964,00000024,false,Rx,0,5,AB,F9,2F,22,09,00,00,00
30013962,00000020,false,Rx,0,6,00,44,0B,00,E0,FF,00,00
30023966,00000026,false,Rx,0,8,38,C5,35,34,00,AA,30,01
30033960,00000010,false,Rx,0,8,CE,01,00,01,00,00,C0,32
30053957,0000002B,false,Rx,0,8,00,00,09,62,FE,90,0B,FE
30063964,0000000B,false,Rx,0,8,55,A5,55,00,CA,10,00,04
30073965,00000013,false,Rx,0,8,1A,CF,04,07,9C,57,55,FF
30083965,00000024,false,Rx,0,5,AA,F9,2F,22,0A,00,00,00
30093969,00000036,false,Rx,0,8,D2,12,00,AA,FF,C0,1B,E0
30103959,0000002E,false,Rx,0,8,66,FC,FF,FF,FF,FF,FF,FF
30113973,00000020,false,Rx,0,6,00,44,0B,00,E0,FF,00,00
30123970,00000026,false,Rx,0,8,38,C5,35,34,00,AA,30,01
30133967,0000000A,false,Rx,0,6,94,00,50,2E,FE,FF,00,00
30143961,00000014,false,Rx,0,0,00,00,00,00,00,00,00,00
30153968,0000002A,false,Rx,0,8,D2,F6,FF,FF,17,7F,4C,FF
30163962,0000000B,false,Rx,0,8,AA,AA,55,00,CA,10,00,04
30173966,00000013,false,Rx,0,8,1A,CF,04,07,9D,57,55,FF
30183966,00000024,false,Rx,0,5,AB,F9,2F,22,09,00,00,00
30203961,00000028,false,Rx,0,0,00,00,00,00,00,00,00,00
30213971,00000020,false,Rx,0,6,00,44,0B,00,E0,FF,00,00
30223971,00000026,false,Rx,0,8,38,C5,36,35,00,AA,30,01
30233962,00000010,false,Rx,0,8,CE,01,00,01,00,00,C0,32
30243969,00000007,false,Rx,0,0,00,00,00,00,00,00,00,00
30253963,0000002B,false,Rx,0,8,00,00,09,64,FE,90,0B,FE
30263970,0000000B,false,Rx,0,8,4B,16,55,00,CA,10,00,04
30273967,00000013,false,Rx,0,8,1A,CF,04,07,9C,57,55,FF
30283967,00000024,false,Rx,0,5,AB,F9,2F,22,09,00,00,00
30293964,00000037,false,Rx,0,8,FF,0F,02,64,8A,B5,1D,48
30303968,0000002E,false,Rx,0,8,79,FC,FF,FF,FF,FF,FF,FF
30313978,00000020,false,Rx,0,6,00,44,0B,00,E0,FF,00,00
30323972,00000026,false,Rx,0,8,38,C5,36,35,00,AA,40,01
30333972,0000000A,false,Rx,0,6,94,00,50,2E,FE,FF,00,00
30343973,0000000E,false,Rx,0,8,AA,FD,E4,FF,D0,3F,00,FF
30353973,0000002A,false,Rx,0,8,D2,F6,FF,FF,17,7F,4C,FF
30363964,0000000B,false,Rx,0,8,54,69,55,00,CA,10,00,04
30373971,00000013,false,Rx,0,8,1C,CF,04,07,9D,57,55,FF
30383971,00000024,false,Rx,0,5,AB,F9,2F,22,09,00,00,00
30413969,00000020,false,Rx,0,6,00,44,0B,00,E0,FF,00,00
30423973,00000026,false,Rx,0,8,38,C5,36,35,00,AA,40,01
30433964,00000010,false,Rx,0,8,CE,01,00,01,00,00,C0,32
30453965,0000002B,false,Rx,0,8,00,00,09,66,FE,91,0B,FE
30463972,0000000B,false,Rx,0,8,55,A5,55,00,C9,10,00,04
30473972,00000013,false,Rx,0,8,1C,CF,04,07,9C,57,55,FF
30483972,00000024,false,Rx,0,5,A9,F9,2F,22,0B,00,00,00
30493976,00000036,false,Rx,0,8,D2,12,00,AA,FF,C0,1B,E0
30503967,0000002E,false,Rx,0,8,81,FC,FF,FF,FF,FF,FF,FF
30513980,00000020,false,Rx,0,6,00,44,0B,00,E0,FF,00,00
30523977,00000026,false,Rx,0,8,38,C5,37,36,00,AA,40,01
30533975,0000000A,false,Rx,0,6,94,00,50,2E,FE,FF,00,00
30543969,00000014,false,Rx,0,0,00,00,00,00,00,00,00,00
30553975,0000002A,false,Rx,0,8,D2,F6,FF,FF,17,7F,4C,FF
30563969,0000000B,false,Rx,0,8,AA,AA,55,00,CA,10,00,04
30573973,00000013,false,Rx,0,8,1B,CF,04,07,9D,57,55,FF
30583974,00000024,false,Rx,0,5,A9,F9,2F,22,0B,00,00,00
30603968,00000028,false,Rx,0,0,00,00,00,00,00,00,00,00
30613978,00000020,false,Rx,0,6,00,44,0B,00,E0,FF,00,00
30623979,00000026,false,Rx,0,8,38,C5,37,36,00,AA,40,01
30633969,00000010,false,Rx,0,8,CE,01,00,01,00,00,00,32
30643976,00000007,false,Rx,0,0,00,00,00,00,00,00,00,00
30653970,0000002B,false,Rx,0,8,00,00,0A,68,FE,90,0B,FE
30663977,0000000B,false,Rx,0,8,4B,16,55,00,CA,10,00,04
30673974,00000013,false,Rx,0,8,1B,CF,04,07,9D,57,55,FF
30683978,00000024,false,Rx,0,5,AA,F9,2F,22,0A,00,00,00
30693972,00000037,false,Rx,0,8,FF,0F,02,64,8A,B5,1D,48
30703975,0000002E,false,Rx,0,8,89,FC,FF,FF,FF,FF,FF,FF
30713986,00000020,false,Rx,0,6,00,44,0B,00,E0,FF,00,00
30723979,00000026,false,Rx,0,8,38,C5,37,36,00,AA,40,01
30733980,0000000A,false,Rx,0,6,94,00,50,2E,FE,FF,00,00
30743980,0000000E,false,Rx,0,8,AA,FD,E4,FF,D0,3F,00,FF
30753981,0000002A,false,Rx,0,8,D2,F6,FF,FF,17,7F,4C,FF
30763972,0000000B,false,Rx,0,8,54,69,55,00,CB,10,00,04
30773978,00000013,false,Rx,0,8,1B,CF,04,07,9F,57,55,FF
30783979,00000024,false,Rx,0,5,AA,F9,2F,22,0A,00,00,00
30813977,00000020,false,Rx,0,6,00,44,0B,00,E0,FF,00,00
30823981,00000026,false,Rx,0,8,38,C5,37,36,00,AA,40,01
30833971,00000010,false,Rx,0,8,CE,01,00,01,00,00,00,32
30853972,0000002B,false,Rx,0,8,00,00,0B,6A,FE,91,0B,FE
30863979,0000000B,false,Rx,0,8,55,A5,55,00,CB,10,00,04
30873979,00000013,false,Rx,0,8,1B,CF,04,07,9D,57,55,FF
30883980,00000024,false,Rx,0,5,AB,F9,2F,22,09,00,00,00
30893984,00000036,false,Rx,0,8,D2,12,00,AA,FF,C0,1B,E0
30903994,0000002E,false,Rx,0,8,81,FC,FF,FF,FF,FF,FF,FF
30913988,00000020,false,Rx,0,6,00,44,0B,00,E0,FF,00,00
30923981,00000026,false,Rx,0,8,38,C5,38,37,00,AA,50,01
30933982,0000000A,false,Rx,0,6,94,00,50,2E,FE,FF,00,00
30943976,00000014,false,Rx,0,0,00,00,00,00,00,00,00,00
30953983,0000002A,false,Rx,0,8,D2,F6,FF,FF,17,7F,4C,FF
30963977,0000000B,false,Rx,0,7,AA,AA,54,00,10,00,04,00
30973980,00000013,false,Rx,0,8,1E,CF,04,07,9F,57,55,FF
30983981,00000024,false,Rx,0,5,A8,F9,2F,22,0C,00,00,00
31003975,00000028,false,Rx,0,0,00,00,00,00,00,00,00,00
31013985,00000020,false,Rx,0,6,00,44,0B,00,E0,FF,00,00
31023986,00000026,false,Rx,0,8,38,C5,38,37,00,AA,50,01
31033977,00000010,false,Rx,0,8,CE,01,00,01,00,00,00,32
31043983,00000007,false,Rx,0,0,00,00,00,00,00,00,00,00
31053977,0000002B,false,Rx,0,8,00,00,0B,6C,FE,91,0B,FE
31063984,0000000B,false,Rx,0,8,4B,16,55,00,C9,10,00,04
31073982,00000013,false,Rx,0,8,1E,CF,04,07,9C,57,55,FF
31083982,00000024,false,Rx,0,5,AA,F9,2F,22,0A,00,00,00
31093979,00000037,false,Rx,0,8,FF,0F,02,64,8A,B5,1D,48
31103983,0000002E,false,Rx,0,8,88,FC,FF,FF,FF,FF,FF,FF
31113993,00000020,false,Rx,0,6,00,44,0B,00,E0,FF,00,00
31123987,00000026,false,Rx,0,8,38,C5,38,37,00,AA,50,01
31133987,0000000A,false,Rx,0,6,94,00,50,2E,FE,FF,00,00
31143988,0000000E,false,Rx,0,8,AA,FD,E4,FF,D0,3F,00,FF
31153985,0000002A,false,Rx,0,8,D2,F6,FF,FF,17,7F,4C,FF
31163979,0000000B,false,Rx,0,8,54,69,55,00,CA,10,00,04
31173986,00000013,false,Rx,0,8,1E,CF,04,07,9D,57,55,FF
31183986,00000024,false,Rx,0,5,AB,F9,2F,22,09,00,00,00
31213984,00000020,false,Rx,0,6,00,44,0B,00,E0,FF,00,00
31223988,00000026,false,Rx,0,8,38,C5,38,37,00,AA,50,01
31233978,00000010,false,Rx,0,8,CE,01,00,01,00,00,00,32
31253976,0000002B,false,Rx,0,8,00,00,0C,6E,FE,91,0B,FE
31263987,0000000B,false,Rx,0,8,55,A5,55,00,CA,10,00,04
31273987,00000013,false,Rx,0,8,1E,CF,04,07,9D,57,55,FF
31283987,00000024,false,Rx,0,5,AB,F9,2F,22,09,00,00,00
31293991,00000036,false,Rx,0,8,D2,12,00,AA,FF,C0,1B,E0
31303982,0000002E,false,Rx,0,8,89,FC,FF,FF,FF,FF,FF,FF
31313995,00000020,false,Rx,0,6,00,44,0B,00,E0,FF,00,00
31323989,00000026,false,Rx,0,8,38,C5,39,38,00,AA,60,01
31333989,0000000A,false,Rx,0,6,94,00,50,2E,FE,FF,00,00
31343983,00000014,false,Rx,0,0,00,00,00,00,00,00,00,00
31353990,0000002A,false,Rx,0,8,D2,F6,FF,FF,17,7F,4C,FF
31363984,0000000B,false,Rx,0,8,AA,AA,55,00,CA,10,00,04
31373988,00000013,false,Rx,0,8,20,CF,04,07,9F,57,55,FF
31383988,00000024,false,Rx,0,5,A9,F9,2F,22,0B,00,00,00
31403983,00000028,false,Rx,0,0,00,00,00,00,00,00,00,00
31413993,00000020,false,Rx,0,6,00,44,0B,00,E0,FF,00,00
31423990,00000026,false,Rx,0,8,38,C5,39,38,00,AA,60,01
31433984,00000010,false,Rx,0,8,CE,01,00,01,00,00,00,32
31443988,00000007,false,Rx,0,0,00,00,00,00,00,00,00,00
31453985,0000002B,false,Rx,0,8,00,00,0C,70,FE,91,0B,FE
31463992,0000000B,false,Rx,0,8,4B,16,55,00,CA,10,00,04
31473989,00000013,false,Rx,0,8,20,CF,04,07,9D,57,55,FF
31483989,00000024,false,Rx,0,5,AB,F9,2F,22,09,00,00,00
31493987,00000037,false,Rx,0,8,FF,0F,00,64,8A,B5,1D,48
31503990,0000002E,false,Rx,0,8,93,FC,FF,FF,FF,FF,FF,FF
31513997,00000020,false,Rx,0,6,00,44,0B,00,E0,FF,00,00
31523994,00000026,false,Rx,0,8,38,C5,39,38,00,AA,60,01
31533991,0000000A,false,Rx,0,6,94,00,50,2E,FE,FF,00,00
31543995,0000000E,false,Rx,0,8,AA,FD,E4,FF,D0,3F,00,FF
31553992,0000002A,false,Rx,0,8,D2,F6,FF,FF,17,7F,4C,FF
31563986,0000000B,false,Rx,0,8,54,69,55,00,CA,10,00,04
31573990,00000013,false,Rx,0,8,20,CF,04,07,9D,57,55,FF
31583994,00000024,false,Rx,0,5,AB,F9,2F,22,09,00,00,00
31613992,00000020,false,Rx,0,6,00,44,0B,00,E0,FF,00,00
31623995,00000026,false,Rx,0,8,38,C5,39,38,00,AA,60,01
31633986,00000010,false,Rx,0,8,CE,01,00,01,00,00,40,32
31653984,0000002B,false,Rx,0,8,00,00,0D,72,FE,91,0B,FE
31663994,0000000B,false,Rx,0,8,55,A5,55,00,C9,10,00,04
31673994,00000013,false,Rx,0,8,1F,CF,04,07,9D,57,55,FF
31683995,00000024,false,Rx,0,5,AA,F9,2F,22,0A,00,00,00
31693998,00000036,false,Rx,0,8,D2,12,00,AA,FF,C0,1B,E0
31703989,0000002E,false,Rx,0,8,A0,FC,FF,FF,FF,FF,FF,FF
31714002,00000020,false,Rx,0,6,00,44,0B,00,E0,FF,00,00
31723996,00000026,false,Rx,0,8,38,C5,3A,39,00,AA,60,01
31733997,0000000A,false,Rx,0,6,94,00,50,2E,FE,FF,00,00
31743991,00000014,false,Rx,0,0,00,00,00,00,00,00,00,00
31753998,0000002A,false,Rx,0,8,D2,F6,FF,FF,17,7F,4C,FF
31763991,0000000B,false,Rx,0,8,AA,AA,56,00,CA,10,00,04
31773995,00000013,false,Rx,0,8,20,CF,04,07,9F,57,55,FF
31783996,00000024,false,Rx,0,5,AA,F9,2F,22,0A,00,00,00
31803987,00000028,false,Rx,0,0,00,00,00,00,00,00,00,00
31814000,00000020,false,Rx,0,6,00,44,0B,00,E0,FF,00,00
31824001,00000026,false,Rx,0,8,38,C5,3A,39,00,AA,60,01
31833991,00000010,false,Rx,0,8,CE,01,00,01,00,00,40,32
31843998,00000007,false,Rx,0,0,00,00,00,00,00,00,00,00
31853992,0000002B,false,Rx,0,8,00,00,0E,74,FE,91,0B,FE
31863999,0000000B,false,Rx,0,8,4B,16,55,00,CB,10,00,04
31873996,00000013,false,Rx,0,8,20,CF,04,07,9D,57,55,FF
31883997,00000024,false,Rx,0,5,AA,F9,2F,22,0A,00,00,00
31893994,00000037,false,Rx,0,8,FF,0F,00,64,8A,B5,1D,48
31903998,0000002E,false,Rx,0,8,90,FC,FF,FF,FF,FF,FF,FF
31914008,00000020,false,Rx,0,6,00,44,0B,00,E0,FF,00,00
31924002,00000026,false,Rx,0,8,38,C5,3A,39,00,AA,70,01
31933999,0000000A,false,Rx,0,6,94,00,50,2E,FE,FF,00,00
31944002,0000000E,false,Rx,0,8,AA,FD,E4,FF,D0,3F,00,FF
31954000,0000002A,false,Rx,0,8,D2,F6,FF,FF,17,7F,4C,FF
31963993,0000000B,false,Rx,0,8,54,69,56,00,CA,10,00,04
31974001,00000013,false,Rx,0,8,21,CF,04,07,9F,57,55,FF
31984001,00000024,false,Rx,0,5,A9,F9,2F,22,0B,00,00,00
32013999,00000020,false,Rx,0,6,00,44,0B,00,E0,FF,00,00
32024003,00000026,false,Rx,0,8,38,C5,3A,39,00,AA,70,01
32033993,00000010,false,Rx,0,8,CE,01,00,01,00,00,40,32
32053991,0000002B,false,Rx,0,8,00,00,0F,76,FE,91,0B,FE
32064001,0000000B,false,Rx,0,8,55,A5,55,00,CB,10,00,04
32074002,00000013,false,Rx,0,8,21,CF,04,07,9F,57,55,FF
32084002,00000024,false,Rx,0,5,AB,F9,2F,22,09,00,00,00
32094006,00000036,false,Rx,0,8,D2,12,00,AA,FF,C0,1B,E0
32103996,0000002E,false,Rx,0,8,A7,FC,FF,FF,FF,FF,FF,FF
32114010,00000020,false,Rx,0,6,00,44,0B,00,E0,FF,00,00
32124004,00000026,false,Rx,0,8,38,C5,3B,3A,00,AA,70,01
32134004,0000000A,false,Rx,0,6,94,00,50,2E,FE,FF,00,00
32143998,00000014,false,Rx,0,0,00,00,00,00,00,00,00,00
32154005,0000002A,false,Rx,0,8,D2,F6,FF,FF,17,7F,4C,FF
32163996,0000000B,false,Rx,0,8,AA,AA,55,00,CA,10,00,04
32174003,00000013,false,Rx,0,8,21,CF,04,07,9F,57,55,FF
32184003,00000024,false,Rx,0,5,AA,F9,2F,22,0A,00,00,00
32203994,00000028,false,Rx,0,0,00,00,00,00,00,00,00,00
32214008,00000020,false,Rx,0,6,00,44,0B,00,E0,FF,00,00
32224005,00000026,false,Rx,0,8,38,C5,3B,3A,00,AA,70,01
32233999,00000010,false,Rx,0,8,CE,01,00,01,00,00,40,32
32244002,00000007,false,Rx,0,0,00,00,00,00,00,00,00,00
32253999,0000002B,false,Rx,0,8,00,00,0F,78,FE,90,0B,FE
32264003,0000000B,false,Rx,0,8,4B,16,54,00,CA,10,00,04
32274004,00000013,false,Rx,0,8,21,CF,04,07,9D,57,55,FF
32284004,00000024,false,Rx,0,5,AB,F9,2F,22,09,00,00,00
32294001,00000037,false,Rx,0,8,FF,0F,02,64,8A,B5,1D,48
32304005,0000002E,false,Rx,0,8,A9,FC,FF,FF,FF,FF,FF,FF
32314012,00000020,false,Rx,0,6,00,44,0B,00,E0,FF,00,00
32324009,00000026,false,Rx,0,8,38,C5,3B,3A,00,AA,80,01
32334006,0000000A,false,Rx,0,6,94,00,50,2E,FE,FF,00,00
32344010,0000000E,false,Rx,0,8,AA,FD,E4,FF,D0,3F,00,FF
32354007,0000002A,false,Rx,0,8,D2,F6,FF,FF,17,7F,4C,FF
32364001,0000000B,false,Rx,0,8,54,69,55,00,CA,10,00,04
32374005,00000013,false,Rx,0,8,22,CF,04,07,9F,57,55,FF
32384005,00000024,false,Rx,0,5,AA,F9,2F,22,0A,00,00,00
32414006,00000020,false,Rx,0,6,00,44,0B,00,E0,FF,00,00
32424010,00000026,false,Rx,0,8,38,C5,3B,3A,00,AA,80,01
32434001,00000010,false,Rx,0,8,CE,01,00,01,00,00,40,32
32453998,0000002B,false,Rx,0,8,00,00,10,7A,FE,91,0B,FE
32464008,0000000B,false,Rx,0,8,55,A5,55,00,CA,10,00,04
32474009,00000013,false,Rx,0,8,22,CF,04,07,9F,57,55,FF
32484009,00000024,false,Rx,0,5,AB,F9,2F,22,09,00,00,00
32494013,00000036,false,Rx,0,8,D2,12,00,AA,FF,C0,1B,E0
32504004,0000002E,false,Rx,0,8,AE,FC,FF,FF,FF,FF,FF,FF
32514017,00000020,false,Rx,0,6,00,44,0B,00,E0,FF,00,00
32524011,00000026,false,Rx,0,8,38,C5,3B,3A,00,AA,80,01
32534012,0000000A,false,Rx,0,6,94,00,50,2E,FE,FF,00,00
32544002,00000014,false,Rx,0,0,00,00,00,00,00,00,00,00
32554012,0000002A,false,Rx,0,8,D2,F6,FF,FF,17,7F,4C,FF
32564003,0000000B,false,Rx,0,8,AA,AA,56,00,CB,10,00,04
32574010,00000013,false,Rx,0,8,21,CF,04,07,9D,57,55,FF
32584053,00000024,false,Rx,0,5,AA,F9,2F,22,0A,00,00,00
32604001,00000028,false,Rx,0,0,00,00,00,00,00,00,00,00
32614015,00000020,false,Rx,0,6,00,44,0B,00,E0,FF,00,00
32624012,00000026,false,Rx,0,8,38,C5,3C,3B,00,AA,80,01
32634006,00000010,false,Rx,0,8,CE,01,00,01,00,00,40,32
32644013,00000007,false,Rx,0,0,00,00,00,00,00,00,00,00
32654007,0000002B,false,Rx,0,8,00,00,11,7C,FE,91,0B,FE
32664011,0000000B,false,Rx,0,8,4B,16,55,00,C9,10,00,04
32674011,00000013,false,Rx,0,8,21,CF,04,07,9D,57,55,FF
32684012,00000024,false,Rx,0,5,AC,F9,2F,22,08,00,00,00
32694009,00000037,false,Rx,0,8,FF,0F,02,64,8A,B5,1D,48
32704012,0000002E,false,Rx,0,8,AD,FC,FF,FF,FF,FF,FF,FF
32714019,00000020,false,Rx,0,6,00,44,0B,00,E0,FF,00,00
32724013,00000026,false,Rx,0,8,38,C5,3C,3B,00,AA,80,01
32734014,0000000A,false,Rx,0,6,94,00,50,2E,FE,FF,00,00
32744014,0000000E,false,Rx,0,8,AA,FD,E4,FF,D0,3F,00,FF
32754014,0000002A,false,Rx,0,8,D2,F6,FF,FF,17,7F,4C,FF
32764008,0000000B,false,Rx,0,8,54,69,55,00,C9,10,00,04
32774015,00000013,false,Rx,0,8,22,CF,04,07,9F,57,55,FF
