"Time Stamp",ID,Extended,Dir,Bus,LEN,D1,D2,D3,D4,D5,D6,D7,D8
4613,00000026,false,Rx,0,8,38,C5,00,00,00,00,00,00
14616,0000000A,false,Rx,0,6,94,00,00,2E,FE,FF,00,00
24614,0000000E,false,Rx,0,8,A9,FD,80,FF,D0,3F,00,FF
34614,0000002A,false,Rx,0,8,D2,F6,FF,FF,17,00,4C,FF
44608,0000000B,false,Rx,0,8,54,69,55,00,CA,10,00,04
54612,00000013,false,Rx,0,8,00,CF,00,07,9F,6B,00,FF
64612,00000024,false,Rx,0,5,A5,F9,2F,22,0F,00,00,00
94613,00000020,false,Rx,0,6,00,44,0B,00,E0,FF,00,00
104617,00000026,false,Rx,0,8,38,C5,00,00,00,00,00,00
114647,00000010,false,Rx,0,8,C0,D9,01,13,00,00,80,32
134605,0000002B,false,Rx,0,8,00,00,00,00,FE,88,0B,FE
144616,0000000B,false,Rx,0,8,55,A5,56,00,CA,10,00,04
154616,00000013,false,Rx,0,8,00,CF,00,07,A1,6B,00,FF
164613,00000024,false,Rx,0,5,A5,F9,2F,22,0F,00,00,00
174620,00000036,false,Rx,0,8,C8,08,00,AA,FF,C0,00,E0
184608,0000002E,false,Rx,0,8,00,FC,FF,FF,FF,FF,FF,FF
194624,00000020,false,Rx,0,6,00,44,0B,00,E0,FF,00,00
204618,00000026,false,Rx,0,8,38,C5,00,00,00,00,00,00
214619,0000000A,false,Rx,0,6,94,00,00,2E,FE,FF,00,00
224609,00000014,false,Rx,0,0,00,00,00,00,00,00,00,00
234619,0000002A,false,Rx,0,8,D2,F6,FF,FF,17,00,4C,FF
244610,0000000B,false,Rx,0,8,AA,AA,56,00,CB,10,00,04
254617,00000013,false,Rx,0,8,00,CF,00,07,A1,6B,00,FF
264617,00000024,false,Rx,0,5,A5,F9,2F,22,0F,00,00,00
284609,00000028,false,Rx,0,0,00,00,00,00,00,00,00,00
294622,00000020,false,Rx,0,6,00,44,0B,00,E0,FF,00,00
304619,00000026,false,Rx,0,8,38,C5,00,00,00,00,00,00
314613,00000010,false,Rx,0,8,C0,D9,01,13,00,00,C0,32
324617,00000007,false,Rx,0,0,00,00,00,00,00,00,00,00
334614,0000002B,false,Rx,0,8,00,00,00,00,FE,89,0B,FE
344618,0000000B,false,Rx,0,8,4B,16,56,00,CA,10,00,04
354618,00000013,false,Rx,0,8,00,CF,00,07,9F,6B,00,FF
364619,00000024,false,Rx,0,5,A6,F9,2F,22,0E,00,00,00
374616,00000037,false,Rx,0,8,FF,0F,80,64,8B,C9,DD,47
384619,0000002E,false,Rx,0,8,00,FC,FF,FF,FF,FF,FF,FF
394626,00000020,false,Rx,0,6,00,44,0B,00,E0,FF,00,00
404620,00000026,false,Rx,0,8,38,C5,00,00,00,00,00,00
414621,0000000A,false,Rx,0,6,96,00,00,2E,FE,FF,00,00
424621,0000000E,false,Rx,0,8,A9,FD,80,FF,D0,3F,00,FF
434622,0000002A,false,Rx,0,8,D2,F6,FF,FF,17,00,4C,FF
444612,0000000B,false,Rx,0,8,54,69,56,00,CA,10,00,04
454619,00000013,false,Rx,0,8,00,CF,00,07,A1,6B,00,FF
464620,00000024,false,Rx,0,5,A6,F9,2F,22,0E,00,00,00
494621,00000020,false,Rx,0,6,00,44,0B,00,E0,FF,00,00
504625,00000026,false,Rx,0,8,38,C5,00,00,00,00,00,00
514615,00000010,false,Rx,0,8,C0,D6,01,13,00,00,C0,32
534613,0000002B,false,Rx,0,8,00,00,00,00,FE,88,0B,FE
544623,0000000B,false,Rx,0,8,55,A5,56,00,CA,10,00,04
554623,00000013,false,Rx,0,8,00,CF,00,07,A1,6B,00,FF
564621,00000024,false,Rx,0,5,A3,F9,2F,22,11,00,00,00
574628,00000036,false,Rx,0,8,C8,08,00,AA,FF,C0,00,E0
584618,0000002E,false,Rx,0,8,00,FC,FF,FF,FF,FF,FF,FF
594632,00000020,false,Rx,0,6,00,44,0B,00,E0,FF,00,00
604626,00000026,false,Rx,0,8,38,C5,00,00,00,00,00,00
614626,0000000A,false,Rx,0,6,96,00,00,2E,FE,FF,00,00
624617,00000014,false,Rx,0,0,00,00,00,00,00,00,00,00
634627,0000002A,false,Rx,0,8,D2,F6,FF,FF,17,00,4C,FF
644618,0000000B,false,Rx,0,8,AA,AA,55,00,CA,10,00,04
654624,00000013,false,Rx,0,8,00,CF,00,07,9F,6B,00,FF
664625,00000024,false,Rx,0,5,A5,F9,2F,22,0F,00,00,00
684616,00000028,false,Rx,0,0,00,00,00,00,00,00,00,00
694629,00000020,false,Rx,0,6,00,44,0B,00,E0,FF,00,00
704627,00000026,false,Rx,0,8,38,C5,00,00,00,00,00,00
714621,00000010,false,Rx,0,8,C0,D6,01,13,00,00,C0,32
724624,00000007,false,Rx,0,0,00,00,00,00,00,00,00,00
734621,0000002B,false,Rx,0,8,00,00,00,00,FE,88,0B,FE
744625,0000000B,false,Rx,0,8,4B,16,56,00,CA,10,00,04
754626,00000013,false,Rx,0,8,00,CF,00,07,9F,6B,00,FF
764626,00000024,false,Rx,0,5,A5,F9,2F,22,0F,00,00,00
774623,00000037,false,Rx,0,8,FF,0F,80,64,8B,C9,DD,47
784627,0000002E,false,Rx,0,8,00,FC,FF,FF,FF,FF,FF,FF
794634,00000020,false,Rx,0,6,00,44,0B,00,E0,FF,00,00
804628,00000026,false,Rx,0,8,38,C5,00,00,00,00,00,00
814628,0000000A,false,Rx,0,6,96,00,00,2E,FE,FF,00,00
824629,0000000E,false,Rx,0,8,A9,FD,80,FF,D0,3F,00,FF
834629,0000002A,false,Rx,0,8,D2,F6,FF,FF,17,00,4C,FF
844620,0000000B,false,Rx,0,8,54,69,56,00,CA,10,00,04
854627,00000013,false,Rx,0,8,00,CF,00,07,9F,6B,00,FF
864627,00000024,false,Rx,0,5,A5,F9,2F,22,0F,00,00,00
894628,00000020,false,Rx,0,6,00,44,0B,00,E0,FF,00,00
904629,00000026,false,Rx,0,8,38,C5,00,00,00,00,00,00
914623,00000010,false,Rx,0,8,C0,D6,01,13,00,00,C0,32
934620,0000002B,false,Rx,0,8,00,00,00,00,FE,89,0B,FE
944627,0000000B,false,Rx,0,8,55,A5,56,00,CA,10,00,04
954631,00000013,false,Rx,0,8,00,CF,00,07,9F,6B,00,FF
964628,00000024,false,Rx,0,5,A5,F9,2F,22,0F,00,00,00
974635,00000036,false,Rx,0,8,C8,08,00,AA,FF,C0,00,E0
984622,0000002E,false,Rx,0,8,00,FC,FF,FF,FF,FF,FF,FF
994639,00000020,false,Rx,0,6,00,44,0B,00,E0,FF,00,00
1004633,00000026,false,Rx,0,8,38,C5,00,00,00,00,00,00
1014633,0000000A,false,Rx,0,6,96,00,00,2E,FE,FF,00,00
1024624,00000014,false,Rx,0,0,00,00,00,00,00,00,00,00
1034634,0000002A,false,Rx,0,8,D2,F6,FF,FF,17,00,4C,FF
1044625,0000000B,false,Rx,0,8,AA,AA,56,00,CB,10,00,04
1054632,00000013,false,Rx,0,8,00,CF,00,07,9F,6B,00,FF
1064629,00000024,false,Rx,0,5,A7,F9,2F,22,0D,00,00,00
1084623,00000028,false,Rx,0,0,00,00,00,00,00,00,00,00
1094637,00000020,false,Rx,0,6,00,44,0B,00,E0,FF,00,00
1104634,00000026,false,Rx,0,8,38,C5,00,00,00,00,00,00
1114628,00000010,false,Rx,0,8,C0,D3,01,13,00,00,C0,32
1124632,00000007,false,Rx,0,0,00,00,00,00,00,00,00,00
1134629,0000002B,false,Rx,0,8,00,00,00,00,FE,88,0B,FE
1144633,0000000B,false,Rx,0,8,4B,16,56,00,CA,10,00,04
1154633,00000013,false,Rx,0,8,00,CF,00,07,9F,6B,00,FF
1164633,00000024,false,Rx,0,5,A3,F9,2F,22,11,00,00,00
1174631,00000037,false,Rx,0,8,FF,0F,80,64,8A,C9,DD,47
1184634,0000002E,false,Rx,0,8,00,FC,FF,FF,FF,FF,FF,FF
1194641,00000020,false,Rx,0,6,00,44,0B,00,E0,FF,00,00
1204635,00000026,false,Rx,0,8,38,C5,00,00,00,00,00,00
1214636,0000000A,false,Rx,0,6,96,00,00,2E,FE,FF,00,00
1224636,0000000E,false,Rx,0,8,A9,FD,80,FF,D0,3F,00,FF
1234636,0000002A,false,Rx,0,8,D2,F6,FF,FF,17,00,4C,FF
1244627,0000000B,false,Rx,0,8,54,69,56,00,CB,10,00,04
1254634,00000013,false,Rx,0,8,00,CF,00,07,9F,6B,00,FF
1264634,00000024,false,Rx,0,5,A6,F9,2F,22,0E,00,00,00
1294636,00000020,false,Rx,0,6,00,44,0B,00,E0,FF,00,00
1304636,00000026,false,Rx,0,8,38,C5,00,00,00,00,00,00
1314630,00000010,false,Rx,0,8,C0,D3,01,13,00,00,C0,32
1334628,0000002B,false,Rx,0,8,00,00,00,00,FE,88,0B,FE
1344635,0000000B,false,Rx,0,8,55,A5,56,00,CB,10,00,04
1354635,00000013,false,Rx,0,8,00,CF,00,07,9F,6B,00,FF
1364636,00000024,false,Rx,0,5,A7,F9,2F,22,0D,00,00,00
1374642,00000036,false,Rx,0,8,C8,08,00,AA,FF,C0,00,E0
1384633,0000002E,false,Rx,0,8,00,FC,FF,FF,FF,FF,FF,FF
1394647,00000020,false,Rx,0,6,00,44,0B,00,E0,FF,00,00
1404640,00000026,false,Rx,0,8,38,C5,00,00,00,00,00,00
1414641,0000000A,false,Rx,0,6,96,00,00,2E,FE,FF,00,00
1424684,00000014,false,Rx,0,0,00,00,00,00,00,00,00,00
1434642,0000002A,false,Rx,0,8,D2,F6,FF,FF,17,00,4C,FF
1444632,0000000B,false,Rx,0,8,AA,AA,56,00,CA,10,00,04
1454636,00000013,false,Rx,0,8,00,CF,00,07,9F,6B,00,FF
1464636,00000024,false,Rx,0,5,A5,F9,2F,22,0F,00,00,00
1484631,00000028,false,Rx,0,0,00,00,00,00,00,00,00,00
1494641,00000020,false,Rx,0,6,00,44,0B,00,E0,FF,00,00
1504641,00000026,false,Rx,0,8,38,C5,00,00,00,00,00,00
1514635,00000010,false,Rx,0,8,C0,D1,01,13,00,00,00,32
1524639,00000007,false,Rx,0,0,00,00,00,00,00,00,00,00
1534636,0000002B,false,Rx,0,8,00,00,00,00,FE,88,0B,FE
1544640,0000000B,false,Rx,0,8,4B,16,55,00,CB,10,00,04
1554640,00000013,false,Rx,0,8,00,CF,00,07,A1,6B,00,FF
1564641,00000024,false,Rx,0,5,A6,F9,2F,22,0E,00,00,00
1574638,00000037,false,Rx,0,8,FF,0F,80,64,8A,C9,DD,47
1584642,0000002E,false,Rx,0,8,00,FC,FF,FF,FF,FF,FF,FF
1594649,00000020,false,Rx,0,6,00,44,0B,00,E0,FF,00,00
1604643,00000026,false,Rx,0,8,38,C5,00,00,00,00,00,00
1614643,0000000A,false,Rx,0,6,96,00,00,2E,FE,FF,00,00
1624679,0000000E,false,Rx,0,8,A9,FD,80,FF,D0,3F,00,FF
1634644,0000002A,false,Rx,0,8,D2,F6,FF,FF,17,00,4C,FF
1644635,0000000B,false,Rx,0,8,54,69,56,00,CA,10,00,04
1654641,00000013,false,Rx,0,8,00,CF,00,07,9F,6B,00,FF
1664642,00000024,false,Rx,0,5,A7,F9,2F,22,0D,00,00,00
1694643,00000020,false,Rx,0,6,00,44,0B,00,E0,FF,00,00
1704644,00000026,false,Rx,0,8,38,C5,00,00,00,00,00,00
1714638,00000010,false,Rx,0,8,C0,D1,01,13,00,00,00,32
1734635,0000002B,false,Rx,0,8,00,00,00,00,FE,88,0B,FE
1744642,0000000B,false,Rx,0,8,55,A5,56,00,CA,10,00,04
1754643,00000013,false,Rx,0,8,00,CF,00,07,A1,6B,00,FF
1764643,00000024,false,Rx,0,5,A4,F9,2F,22,10,00,00,00
1774650,00000036,false,Rx,0,8,C8,07,00,AA,FF,C0,00,E0
1784637,0000002E,false,Rx,0,8,00,FC,FF,FF,FF,FF,FF,FF
1794654,00000020,false,Rx,0,6,00,44,0B,00,E0,FF,00,00
1804648,00000026,false,Rx,0,8,38,C5,00,00,00,00,00,00
1814648,0000000A,false,Rx,0,6,96,00,00,2E,FE,FF,00,00
1824639,00000014,false,Rx,0,0,00,00,00,00,00,00,00,00
1834649,0000002A,false,Rx,0,8,D2,F6,FF,FF,17,00,4C,FF
1844640,0000000B,false,Rx,0,8,AA,AA,56,00,CA,10,00,04
1854647,00000013,false,Rx,0,8,00,CF,00,07,9F,6B,00,FF
1864644,00000024,false,Rx,0,5,A7,F9,2F,22,0D,00,00,00
1884638,00000028,false,Rx,0,0,00,00,00,00,00,00,00,00
1894649,00000020,false,Rx,0,6,00,44,0B,00,E0,FF,00,00
1904649,00000026,false,Rx,0,8,38,C5,00,00,00,00,00,00
1914640,00000010,false,Rx,0,8,C0,CE,01,13,00,00,00,32
1924647,00000007,false,Rx,0,0,00,00,00,00,00,00,00,00
1934644,0000002B,false,Rx,0,8,00,00,00,00,FE,89,0B,FE
1944647,0000000B,false,Rx,0,8,4B,16,56,00,CA,10,00,04
1954648,00000013,false,Rx,0,8,00,CF,00,07,A1,6B,00,FF
1964648,00000024,false,Rx,0,5,A6,F9,2F,22,0E,00,00,00
1974645,00000037,false,Rx,0,8,FF,0F,80,64,8A,CD,DD,47
1984646,0000002E,false,Rx,0,8,00,FC,FF,FF,FF,FF,FF,FF
1994656,00000020,false,Rx,0,6,00,44,0B,00,E0,FF,00,00
2004650,00000026,false,Rx,0,8,38,C5,00,00,00,00,00,00
2014650,0000000A,false,Rx,0,6,96,00,00,2E,FE,FF,00,00
2024651,0000000E,false,Rx,0,8,A9,FD,80,FF,D0,3F,00,FF
2034651,0000002A,false,Rx,0,8,D2,F6,FF,FF,17,00,4C,FF
2044642,0000000B,false,Rx,0,8,54,69,56,00,CB,10,00,04
2054649,00000013,false,Rx,0,8,00,CF,00,07,A1,6B,00,FF
2064649,00000024,false,Rx,0,5,A6,F9,2F,22,0E,00,00,00
2094647,00000020,false,Rx,0,6,00,44,0B,00,E0,FF,00,00
2104651,00000026,false,Rx,0,8,38,C5,00,00,00,00,00,00
2114645,00000010,false,Rx,0,8,C0,CE,01,13,00,00,00,32
2134643,0000002B,false,Rx,0,8,00,00,00,00,FE,88,0B,FE
2144650,0000000B,false,Rx,0,8,55,A5,56,00,CA,10,00,04
2154650,00000013,false,Rx,0,8,00,CF,00,07,A1,6B,00,FF
2164650,00000024,false,Rx,0,5,A4,F9,2F,22,10,00,00,00
2174657,00000036,false,Rx,0,8,C8,07,00,AA,FF,C0,00,E0
2184645,0000002E,false,Rx,0,8,00,FC,FF,FF,FF,FF,FF,FF
2194658,00000020,false,Rx,0,6,00,44,0B,00,E0,FF,00,00
2204652,00000026,false,Rx,0,8,38,C5,00,00,00,00,00,00
2214656,0000000A,false,Rx,0,6,96,00,00,2E,FE,FF,00,00
2224646,00000014,false,Rx,0,0,00,00,00,00,00,00,00,00
2234657,0000002A,false,Rx,0,8,D2,F6,FF,FF,17,00,4C,FF
2244647,0000000B,false,Rx,0,8,AA,AA,56,00,CA,10,00,04
2254651,00000013,false,Rx,0,8,00,CF,00,07,9F,6B,00,FF
2264651,00000024,false,Rx,0,5,A7,F9,2F,22,0D,00,00,00
2284646,00000028,false,Rx,0,0,00,00,00,00,00,00,00,00
2294656,00000020,false,Rx,0,6,00,44,0B,00,E0,FF,00,00
2304656,00000026,false,Rx,0,8,38,C5,00,00,00,00,00,00
2314647,00000010,false,Rx,0,8,C0,CB,01,13,00,00,00,32
2324654,00000007,false,Rx,0,0,00,00,00,00,00,00,00,00
2334651,0000002B,false,Rx,0,8,00,00,00,00,FE,88,0B,FE
2344655,0000000B,false,Rx,0,8,4B,16,56,00,CB,10,00,04
2354655,00000013,false,Rx,0,8,00,CF,00,07,9F,6B,00,FF
2364652,00000024,false,Rx,0,5,A4,F9,2F,22,10,00,00,00
2374653,00000037,false,Rx,0,8,FF,0F,80,64,8A,C9,DD,47
2384653,0000002E,false,Rx,0,8,00,FC,FF,FF,FF,FF,FF,FF
2394664,00000020,false,Rx,0,6,00,44,0B,00,E0,FF,00,00
2404657,00000026,false,Rx,0,8,38,C5,00,00,00,00,00,00
2414658,0000000A,false,Rx,0,6,96,00,00,2E,FE,FF,00,00
2424658,0000000E,false,Rx,0,8,A9,FD,80,FF,D0,3F,00,FF
2434659,0000002A,false,Rx,0,8,D2,F6,FF,FF,17,00,4C,FF
2444649,0000000B,false,Rx,0,8,54,69,56,00,CA,10,00,04
2454656,00000013,false,Rx,0,8,00,CF,00,07,A1,6B,00,FF
2464657,00000024,false,Rx,0,5,A5,F9,2F,22,0F,00,00,00
2494658,00000020,false,Rx,0,6,00,44,0B,00,E0,FF,00,00
2504659,00000026,false,Rx,0,8,38,C5,00,00,00,00,00,00
2514652,00000010,false,Rx,0,8,C0,C8,01,13,00,00,40,32
2534650,0000002B,false,Rx,0,8,00,00,00,00,FE,88,0B,FE
2544657,0000000B,false,Rx,0,8,55,A5,56,00,CA,10,00,04
2554657,00000013,false,Rx,0,8,00,CF,00,07,A1,6B,00,FF
2564658,00000024,false,Rx,0,5,A4,F9,2F,22,10,00,00,00
2574665,00000036,false,Rx,0,8,C8,07,00,AA,FF,C0,00,E0
2584652,0000002E,false,Rx,0,8,00,FC,FF,FF,FF,FF,FF,FF
2594666,00000020,false,Rx,0,6,00,44,0B,00,E0,FF,00,00
2604660,00000026,false,Rx,0,8,38,C5,00,00,00,00,00,00
2614663,0000000A,false,Rx,0,6,96,00,00,2E,FE,FF,00,00
2624654,00000014,false,Rx,0,0,00,00,00,00,00,00,00,00
2634664,0000002A,false,Rx,0,8,D2,F6,FF,FF,17,00,4C,FF
2644655,0000000B,false,Rx,0,8,AA,AA,56,00,CA,10,00,04
2654658,00000013,false,Rx,0,8,00,CF,00,07,A1,6B,00,FF
2664659,00000024,false,Rx,0,5,A6,F9,2F,22,0E,00,00,00
2684650,00000028,false,Rx,0,0,00,00,00,00,00,00,00,00
2694663,00000020,false,Rx,0,6,00,44,0B,00,E0,FF,00,00
2704664,00000026,false,Rx,0,8,38,C5,00,00,00,00,00,00
2714655,00000010,false,Rx,0,8,C0,C8,01,13,00,00,40,32
2724661,00000007,false,Rx,0,0,00,00,00,00,00,00,00,00
2734659,0000002B,false,Rx,0,8,00,00,00,00,FE,89,0B,FE
2744662,0000000B,false,Rx,0,8,4B,16,56,00,CA,10,00,04
2754663,00000013,false,Rx,0,8,00,CF,00,07,9F,6B,00,FF
2764660,00000024,false,Rx,0,5,A4,F9,2F,22,10,00,00,00
2774660,00000037,false,Rx,0,8,FF,0F,80,64,8A,CD,DD,47
2784661,0000002E,false,Rx,0,8,00,FC,FF,FF,FF,FF,FF,FF
2794671,00000020,false,Rx,0,6,00,44,0B,00,E0,FF,00,00
2804665,00000026,false,Rx,0,8,38,C5,00,00,00,00,00,00
2814665,0000000A,false,Rx,0,6,96,00,00,2E,FE,FF,00,00
2824666,0000000E,false,Rx,0,8,A9,FD,80,FF,D0,3F,00,FF
2834666,0000002A,false,Rx,0,8,D2,F6,FF,FF,17,00,4C,FF
2844657,0000000B,false,Rx,0,8,54,69,56,00,CC,10,00,04
2854664,00000013,false,Rx,0,8,00,CF,00,07,A1,6B,00,FF
2864664,00000024,false,Rx,0,5,A6,F9,2F,22,0E,00,00,00
2894662,00000020,false,Rx,0,6,00,44,0B,00,E0,FF,00,00
2904666,00000026,false,Rx,0,8,38,C5,00,00,00,00,00,00
2914657,00000010,false,Rx,0,8,C0,C8,01,13,00,00,40,32
2934658,0000002B,false,Rx,0,8,00,00,00,00,FE,88,0B,FE
2944664,0000000B,false,Rx,0,8,55,A5,56,00,CB,10,00,04
2954665,00000013,false,Rx,0,8,00,CF,00,07,A1,6B,00,FF
2964665,00000024,false,Rx,0,5,A6,F9,2F,22,0E,00,00,00
2974672,00000036,false,Rx,0,8,C8,07,00,AA,FF,C0,00,E0
2984660,0000002E,false,Rx,0,8,00,FC,FF,FF,FF,FF,FF,FF
2994673,00000020,false,Rx,0,6,00,44,0B,00,E0,FF,00,00
3004667,00000026,false,Rx,0,8,38,C5,00,00,00,00,00,00
3014667,0000000A,false,Rx,0,6,96,00,00,2E,FE,FF,00,00
3024661,00000014,false,Rx,0,0,00,00,00,00,00,00,00,00
3034672,0000002A,false,Rx,0,8,D2,F6,FF,FF,17,00,4C,FF
3044659,0000000B,false,Rx,0,8,AA,AA,56,00,CA,10,00,04
3054666,00000013,false,Rx,0,8,00,CF,00,07,A1,6B,00,FF
3064666,00000024,false,Rx,0,5,A5,F9,2F,22,0F,00,00,00
3084657,00000028,false,Rx,0,0,00,00,00,00,00,00,00,00
3094671,00000020,false,Rx,0,6,00,44,0B,00,E0,FF,00,00
3104668,00000026,false,Rx,0,8,38,C5,00,00,00,00,00,00
3114662,00000010,false,Rx,0,8,C0,C6,01,13,00,00,40,32
3124669,00000007,false,Rx,0,0,00,00,00,00,00,00,00,00
3134666,0000002B,false,Rx,0,8,00,00,00,00,FE,89,0B,FE
3144667,0000000B,false,Rx,0,8,4B,16,56,00,CA,10,00,04
3154670,00000013,false,Rx,0,8,00,CF,00,07,9F,6B,00,FF
3164667,00000024,false,Rx,0,5,A5,F9,2F,22,0F,00,00,00
3174668,00000037,false,Rx,0,8,FF,0F,80,64,8B,CD,DD,47
3184668,0000002E,false,Rx,0,8,00,FC,FF,FF,FF,FF,FF,FF
3194678,00000020,false,Rx,0,6,00,44,0B,00,E0,FF,00,00
3204672,00000026,false,Rx,0,8,38,C5,00,00,00,00,00,00
3214673,0000000A,false,Rx,0,6,96,00,00,2E,FE,FF,00,00
3224673,0000000E,false,Rx,0,8,A9,FD,80,FF,D0,3F,00,FF
3234674,0000002A,false,Rx,0,8,D2,F6,FF,FF,17,00,4C,FF
3244664,0000000B,false,Rx,0,8,54,69,55,00,CA,10,00,04
3254671,00000013,false,Rx,0,8,00,CF,00,07,9F,6B,00,FF
3264672,00000024,false,Rx,0,5,A5,F9,2F,22,0F,00,00,00
3294670,00000020,false,Rx,0,6,00,44,0B,00,E0,FF,00,00
3304673,00000026,false,Rx,0,8,38,C5,00,00,00,00,00,00
3314664,00000010,false,Rx,0,8,C0,C6,01,13,00,00,40,32
3334665,0000002B,false,Rx,0,8,00,00,00,00,FE,89,0B,FE
3344672,0000000B,false,Rx,0,8,55,A5,56,00,CB,10,00,04
3354672,00000013,false,Rx,0,8,00,CF,00,07,9F,6B,00,FF
3364673,00000024,false,Rx,0,5,A5,F9,2F,22,0F,00,00,00
3374680,00000036,false,Rx,0,8,C8,07,00,AA,FF,C0,00,E0
3384667,0000002E,false,Rx,0,8,00,FC,FF,FF,FF,FF,FF,FF
3394681,00000020,false,Rx,0,6,00,44,0B,00,E0,FF,00,00
3404674,00000026,false,Rx,0,8,38,C5,00,00,00,00,00,00
3414675,0000000A,false,Rx,0,6,96,00,00,2E,FE,FF,00,00
3424669,00000014,false,Rx,0,0,00,00,00,00,00,00,00,00
3434679,0000002A,false,Rx,0,8,D2,F6,FF,FF,17,00,4C,FF
3444666,0000000B,false,Rx,0,8,AA,AA,55,00,CA,10,00,04
3454673,00000013,false,Rx,0,8,00,CF,00,07,A1,6B,00,FF
3464674,00000024,false,Rx,0,5,A4,F9,2F,22,10,00,00,00
3484665,00000028,false,Rx,0,0,00,00,00,00,00,00,00,00
3494678,00000020,false,Rx,0,6,00,44,0B,00,E0,FF,00,00
3504675,00000026,false,Rx,0,8,38,C5,00,00,00,00,00,00
3514669,00000010,false,Rx,0,8,C0,C3,01,13,00,00,40,32
3524676,00000007,false,Rx,0,0,00,00,00,00,00,00,00,00
3534670,0000002B,false,Rx,0,8,00,00,00,00,FE,89,0B,FE
3544674,0000000B,false,Rx,0,8,4B,16,56,00,CA,10,00,04
3554678,00000013,false,Rx,0,8,00,CF,00,07,A1,6B,00,FF
3564675,00000024,false,Rx,0,5,A6,F9,2F,22,0E,00,00,00
3574675,00000037,false,Rx,0,8,FF,0F,80,64,8B,CD,DD,47
3584676,0000002E,false,Rx,0,8,00,FC,FF,FF,FF,FF,FF,FF
3594686,00000020,false,Rx,0,6,00,44,0B,00,E0,FF,00,00
3604680,00000026,false,Rx,0,8,38,C5,00,00,00,00,00,00
3614680,0000000A,false,Rx,0,6,96,00,00,2E,FE,FF,00,00
3624681,0000000E,false,Rx,0,8,A9,FD,80,FF,D0,3F,00,FF
3634681,0000002A,false,Rx,0,8,D2,F6,FF,FF,17,00,4C,FF
3644672,0000000B,false,Rx,0,8,54,69,56,00,CB,10,00,04
3654679,00000013,false,Rx,0,8,00,CF,00,07,9F,6B,00,FF
3664676,00000024,false,Rx,0,5,A7,F9,2F,22,0D,00,00,00
3694677,00000020,false,Rx,0,6,00,44,0B,00,E0,FF,00,00
3704681,00000026,false,Rx,0,8,38,C5,00,00,00,00,00,00
3714671,00000010,false,Rx,0,8,C0,C3,01,13,00,00,80,32
3734669,0000002B,false,Rx,0,8,00,00,00,00,FE,88,0B,FE
3744679,0000000B,false,Rx,0,8,55,A5,55,00,CA,10,00,04
3754680,00000013,false,Rx,0,8,00,CF,00,07,9F,6B,00,FF
3764680,00000024,false,Rx,0,5,A5,F9,2F,22,0F,00,00,00
3774687,00000036,false,Rx,0,8,C8,07,00,AA,FF,C0,00,E0
3784675,0000002E,false,Rx,0,8,00,FC,FF,FF,FF,FF,FF,FF
3794688,00000020,false,Rx,0,6,00,44,0B,00,E0,FF,00,00
3804734,00000026,false,Rx,0,8,38,C5,00,00,00,00,00,00
3814682,0000000A,false,Rx,0,6,94,00,00,2E,FE,FF,00,00
3824725,00000014,false,Rx,0,0,00,00,00,00,00,00,00,00
3834686,0000002A,false,Rx,0,8,D2,F6,FF,FF,17,00,4C,FF
3844674,0000000B,false,Rx,0,8,AA,AA,56,00,CB,10,00,04
3854681,00000013,false,Rx,0,8,00,CF,00,07,9F,6B,00,FF
3864681,00000024,false,Rx,0,5,A6,F9,2F,22,0E,00,00,00
3884672,00000028,false,Rx,0,0,00,00,00,00,00,00,00,00
3894686,00000020,false,Rx,0,6,00,44,0B,00,E0,FF,00,00
3904683,00000026,false,Rx,0,8,38,C5,00,00,00,00,00,00
3914677,00000010,false,Rx,0,8,C0,C0,01,13,00,00,80,32
3924681,00000007,false,Rx,0,0,00,00,00,00,00,00,00,00
3934678,0000002B,false,Rx,0,8,00,00,00,00,FE,88,0B,FE
3944681,0000000B,false,Rx,0,8,4B,16,56,00,CB,10,00,04
3954682,00000013,false,Rx,0,8,00,CF,00,07,9F,6B,00,FF
3964682,00000024,false,Rx,0,5,A5,F9,2F,22,0F,00,00,00
3974679,00000037,false,Rx,0,8,FF,0F,C0,64,8A,CD,DD,47
3984683,0000002E,false,Rx,0,8,00,FC,FF,FF,FF,FF,FF,FF
3994693,00000020,false,Rx,0,6,00,44,0B,00,E0,FF,00,00
4004736,00000026,false,Rx,0,8,38,C5,00,00,00,00,00,00
4014688,0000000A,false,Rx,0,6,96,00,00,2E,FE,FF,00,00
4024733,0000000E,false,Rx,0,8,A9,FD,80,FF,D0,3F,00,FF
4034685,0000002A,false,Rx,0,8,D2,F6,FF,FF,17,00,4C,FF
4044679,0000000B,false,Rx,0,8,54,69,56,00,CA,10,00,04
4054683,00000013,false,Rx,0,8,00,CF,00,07,9F,6B,00,FF
4064683,00000024,false,Rx,0,5,A7,F9,2F,22,0D,00,00,00
4094685,00000020,false,Rx,0,6,00,44,0B,00,E0,FF,00,00
4104688,00000026,false,Rx,0,8,38,C5,00,00,00,00,00,00
4114679,00000010,false,Rx,0,8,C0,C0,01,13,00,00,80,32
4134680,0000002B,false,Rx,0,8,00,00,00,00,FE,89,0B,FE
4144687,0000000B,false,Rx,0,8,55,A5,56,00,CA,10,00,04
4154687,00000013,false,Rx,0,8,00,CF,00,07,9F,6B,00,FF
4164688,00000024,false,Rx,0,5,A6,F9,2F,22,0E,00,00,00
4174691,00000036,false,Rx,0,8,C8,07,00,AA,FF,C0,00,E0
4184682,0000002E,false,Rx,0,8,00,FC,FF,FF,FF,FF,FF,FF
4194695,00000020,false,Rx,0,6,00,44,0B,00,E0,FF,00,00
4204741,00000026,false,Rx,0,8,38,C5,00,00,00,00,00,00
4214690,0000000A,false,Rx,0,6,96,00,00,2E,FE,FF,00,00
4224732,00000014,false,Rx,0,0,00,00,00,00,00,00,00,00
4234694,0000002A,false,Rx,0,8,D2,F6,FF,FF,17,00,4C,FF
4244681,0000000B,false,Rx,0,8,AA,AA,56,00,CC,10,00,04
4254688,00000013,false,Rx,0,8,00,CF,00,07,A1,6B,00,FF
4264689,00000024,false,Rx,0,5,A7,F9,2F,22,0D,00,00,00
4284680,00000028,false,Rx,0,0,00,00,00,00,00,00,00,00
4294693,00000020,false,Rx,0,6,00,44,0B,00,E0,FF,00,00
4304690,00000026,false,Rx,0,8,38,C5,00,00,00,00,00,00
4314684,00000010,false,Rx,0,8,C0,BE,01,13,00,00,80,32
4324688,00000007,false,Rx,0,0,00,00,00,00,00,00,00,00
4334685,0000002B,false,Rx,0,8,00,00,00,00,FE,88,0B,FE
4344689,0000000B,false,Rx,0,8,4B,16,57,00,CA,10,00,04
4354689,00000013,false,Rx,0,8,00,CF,00,07,A1,6B,00,FF
4364690,00000024,false,Rx,0,5,A6,F9,2F,22,0E,00,00,00
4374687,00000037,false,Rx,0,8,FF,0F,80,64,8A,CD,DD,47
4384691,0000002E,false,Rx,0,8,00,FC,FF,FF,FF,FF,FF,FF
4394701,00000020,false,Rx,0,6,00,44,0B,00,E0,FF,00,00
4404743,00000026,false,Rx,0,8,38,C5,00,00,00,00,00,00
4414695,0000000A,false,Rx,0,6,94,00,00,2E,FE,FF,00,00
4424692,0000000E,false,Rx,0,8,A9,FD,80,FF,D0,3F,00,FF
4434696,0000002A,false,Rx,0,8,D2,F6,FF,FF,17,00,4C,FF
4444687,0000000B,false,Rx,0,8,54,69,56,00,CA,10,00,04
4454694,00000013,false,Rx,0,8,00,CF,00,07,9F,6B,00,FF
4464691,00000024,false,Rx,0,5,A6,F9,2F,22,0E,00,00,00
4494692,00000020,false,Rx,0,6,00,44,0B,00,E0,FF,00,00
4504696,00000026,false,Rx,0,8,38,C5,00,00,00,00,00,00
4514686,00000010,false,Rx,0,8,C0,BE,01,13,00,00,80,32
4534684,0000002B,false,Rx,0,8,00,00,00,00,FE,89,0B,FE
4544694,0000000B,false,Rx,0,8,55,A5,55,00,CA,10,00,04
4554695,00000013,false,Rx,0,8,00,CF,00,07,9F,6B,00,FF
4564695,00000024,false,Rx,0,5,A3,F9,2F,22,11,00,00,00
4574699,00000036,false,Rx,0,8,C8,07,00,AA,FF,C0,00,E0
4584689,0000002E,false,Rx,0,8,00,FC,FF,FF,FF,FF,FF,FF
4594703,00000020,false,Rx,0,6,00,44,0B,00,E0,FF,00,00
4604749,00000026,false,Rx,0,8,38,C5,00,00,00,00,00,00
4614697,0000000A,false,Rx,0,6,96,00,00,2E,FE,FF,00,00
4624688,00000014,false,Rx,0,0,00,00,00,00,00,00,00,00
4634698,0000002A,false,Rx,0,8,D2,F6,FF,FF,17,00,4C,FF
4644689,0000000B,false,Rx,0,8,AA,AA,56,00,CB,10,00,04
4654696,00000013,false,Rx,0,8,00,CF,00,07,9F,6B,00,FF
4664696,00000024,false,Rx,0,5,A4,F9,2F,22,10,00,00,00
4684687,00000028,false,Rx,0,0,00,00,00,00,00,00,00,00
4694701,00000020,false,Rx,0,6,00,44,0B,00,E0,FF,00,00
4704698,00000026,false,Rx,0,8,38,C5,00,00,00,00,00,00
4714692,00000010,false,Rx,0,8,C0,BB,01,13,00,00,80,32
4724695,00000007,false,Rx,0,0,00,00,00,00,00,00,00,00
4734693,0000002B,false,Rx,0,8,00,00,00,00,FE,88,0B,FE
4744696,0000000B,false,Rx,0,8,4B,16,56,00,CA,10,00,04
4754697,00000013,false,Rx,0,8,00,CF,00,07,A1,6B,00,FF
4764697,00000024,false,Rx,0,5,A5,F9,2F,22,0F,00,00,00
4774694,00000037,false,Rx,0,8,FF,0F,C0,64,8A,CD,DD,47
4784698,0000002E,false,Rx,0,8,00,FC,FF,FF,FF,FF,FF,FF
4794705,00000020,false,Rx,0,6,00,44,0B,00,E0,FF,00,00
4804751,00000026,false,Rx,0,8,38,C5,00,00,00,00,00,00
4814703,0000000A,false,Rx,0,6,96,00,00,2E,FE,FF,00,00
4824700,0000000E,false,Rx,0,8,A9,FD,80,FF,D0,3F,00,FF
4834700,0000002A,false,Rx,0,8,D2,F6,FF,FF,17,00,4C,FF
4844694,0000000B,false,Rx,0,8,54,69,56,00,CA,10,00,04
4854698,00000013,false,Rx,0,8,00,CF,00,07,A1,6B,00,FF
4864698,00000024,false,Rx,0,5,A5,F9,2F,22,0F,00,00,00
4894699,00000020,false,Rx,0,6,00,44,0B,00,E0,FF,00,00
4904703,00000026,false,Rx,0,8,38,C5,00,00,00,00,00,00
4914694,00000010,false,Rx,0,8,C0,BB,01,13,00,00,C0,32
4934691,0000002B,false,Rx,0,8,00,00,00,00,FE,89,0B,FE
4944702,0000000B,false,Rx,0,8,55,A5,56,00,CA,10,00,04
4954702,00000013,false,Rx,0,8,00,CF,00,07,9F,6B,00,FF
4964699,00000024,false,Rx,0,5,A6,F9,2F,22,0E,00,00,00
4974706,00000036,false,Rx,0,8,C8,07,00,AA,FF,C0,00,E0
4984697,0000002E,false,Rx,0,8,00,FC,FF,FF,FF,FF,FF,FF
4994710,00000020,false,Rx,0,6,00,44,0B,00,E0,FF,00,00
5004756,00000026,false,Rx,0,8,38,C5,00,00,00,00,00,00
5014705,0000000A,false,Rx,0,6,96,00,00,2E,FE,FF,00,00
5024695,00000014,false,Rx,0,0,00,00,00,00,00,00,00,00
5034705,0000002A,false,Rx,0,8,D2,F6,FF,FF,17,00,4C,FF
5044696,0000000B,false,Rx,0,8,AA,AA,56,00,CA,10,00,04
5054703,00000013,false,Rx,0,8,00,CF,00,07,A1,6B,00,FF
5064704,00000024,false,Rx,0,5,A5,F9,2F,22,0F,00,00,00
5084695,00000028,false,Rx,0,0,00,00,00,00,00,00,00,00
5094708,00000020,false,Rx,0,6,00,44,0B,00,E0,FF,00,00
5104705,00000026,false,Rx,0,8,38,C5,00,00,00,00,00,00
5114748,00000010,false,Rx,0,8,C0,BB,01,13,00,00,C0,32
5124703,00000007,false,Rx,0,0,00,00,00,00,00,00,00,00
5134720,0000002B,false,Rx,0,8,00,00,00,00,FE,89,0B,FE
5144704,0000000B,false,Rx,0,8,4B,16,56,00,CA,10,00,04
5154704,00000013,false,Rx,0,8,00,CF,00,07,9F,6B,00,FF
5164705,00000024,false,Rx,0,5,A4,F9,2F,22,10,00,00,00
5174702,00000037,false,Rx,0,8,FF,0F,80,64,8A,C9,DD,47
5184705,0000002E,false,Rx,0,8,00,FC,FF,FF,FF,FF,FF,FF
5194712,00000020,false,Rx,0,6,00,44,0B,00,E0,FF,00,00
5204758,00000026,false,Rx,0,8,38,C5,00,00,00,00,00,00
5214707,0000000A,false,Rx,0,6,96,00,00,2E,FE,FF,00,00
5224707,0000000E,false,Rx,0,8,A9,FD,80,FF,D0,3F,00,FF
5234708,0000002A,false,Rx,0,8,D2,F6,FF,FF,17,00,4C,FF
5244701,0000000B,false,Rx,0,8,54,69,56,00,CA,10,00,04
5254708,00000013,false,Rx,0,8,00,CF,00,07,A1,6B,00,FF
5264706,00000024,false,Rx,0,5,A5,F9,2F,22,0F,00,00,00
5294707,00000020,false,Rx,0,6,00,44,0B,00,E0,FF,00,00
5304711,00000026,false,Rx,0,8,38,C5,00,00,00,00,00,00
5314701,00000010,false,Rx,0,8,C0,BB,01,13,00,00,C0,32
5334699,0000002B,false,Rx,0,8,00,00,00,00,FE,89,0B,FE
5344709,0000000B,false,Rx,0,8,55,A5,56,00,CB,10,00,04
5354709,00000013,false,Rx,0,8,00,CF,00,07,A1,6B,00,FF
5364707,00000024,false,Rx,0,5,A8,F9,2F,22,0C,00,00,00
5374714,00000036,false,Rx,0,8,C8,07,00,AA,FF,C0,00,E0
5384704,0000002E,false,Rx,0,8,00,FC,FF,FF,FF,FF,FF,FF
5394718,00000020,false,Rx,0,6,00,44,0B,00,E0,FF,00,00
5404764,00000026,false,Rx,0,8,38,C5,00,00,00,00,00,00
5414712,0000000A,false,Rx,0,6,96,00,00,2E,FE,FF,00,00
5424703,00000014,false,Rx,0,0,00,00,00,00,00,00,00,00
5434713,0000002A,false,Rx,0,8,D2,F6,FF,FF,17,00,4C,FF
5444704,0000000B,false,Rx,0,8,AA,AA,56,00,CC,10,00,04
5454711,00000013,false,Rx,0,8,00,CF,00,07,A1,6B,00,FF
5464711,00000024,false,Rx,0,5,A6,F9,2F,22,0E,00,00,00
5484702,00000028,false,Rx,0,0,00,00,00,00,00,00,00,00
5494716,00000020,false,Rx,0,6,00,44,0B,00,E0,FF,00,00
5504713,00000026,false,Rx,0,8,38,C5,00,00,00,00,00,00
5514707,00000010,false,Rx,0,8,C0,B9,01,13,00,00,C0,32
5524710,00000007,false,Rx,0,0,00,00,00,00,00,00,00,00
5534708,0000002B,false,Rx,0,8,00,00,00,00,FE,89,0B,FE
5544711,0000000B,false,Rx,0,8,4B,16,57,00,CA,10,00,04
5554712,00000013,false,Rx,0,8,00,CF,00,07,A1,6B,00,FF
5564712,00000024,false,Rx,0,5,A6,F9,2F,22,0E,00,00,00
5574709,00000037,false,Rx,0,8,FF,0F,80,64,8A,CD,DD,47
5584713,0000002E,false,Rx,0,8,00,FC,FF,FF,FF,FF,FF,FF
5594720,00000020,false,Rx,0,6,00,44,0B,00,E0,FF,00,00
5604766,00000026,false,Rx,0,8,38,C5,00,00,00,00,00,00
5614714,0000000A,false,Rx,0,6,94,00,00,2E,FE,FF,00,00
5624715,0000000E,false,Rx,0,8,A9,FD,80,FF,D0,3F,00,FF
5634715,0000002A,false,Rx,0,8,D2,F6,FF,FF,17,00,4C,FF
5644706,0000000B,false,Rx,0,8,54,69,56,00,CA,10,00,04
5654713,00000013,false,Rx,0,8,00,CF,00,07,9F,6B,00,FF
5664713,00000024,false,Rx,0,5,A6,F9,2F,22,0E,00,00,00
5694714,00000020,false,Rx,0,6,00,44,0B,00,E0,FF,00,00
5704718,00000026,false,Rx,0,8,38,C5,00,00,00,00,00,00
5714709,00000010,false,Rx,0,8,C0,B9,01,13,00,00,C0,32
5734706,0000002B,false,Rx,0,8,00,00,00,00,FE,8A,0B,FE
5744717,0000000B,false,Rx,0,8,55,A5,55,00,CA,10,00,04
5754717,00000013,false,Rx,0,8,00,CF,00,07,9F,6B,00,FF
5764714,00000024,false,Rx,0,5,A5,F9,2F,22,0F,00,00,00
5774721,00000036,false,Rx,0,8,C8,07,00,AA,FF,C0,00,E0
5784709,0000002E,false,Rx,0,8,00,FC,FF,FF,FF,FF,FF,FF
5794725,00000020,false,Rx,0,6,00,44,0B,00,E0,FF,00,00
5804719,00000026,false,Rx,0,8,38,C5,00,00,00,00,00,00
5814720,0000000A,false,Rx,0,6,96,00,00,2E,FE,FF,00,00
5824710,00000014,false,Rx,0,0,00,00,00,00,00,00,00,00
5834721,0000002A,false,Rx,0,8,D2,F6,FF,FF,17,00,4C,FF
5844711,0000000B,false,Rx,0,8,AA,AA,56,00,CA,10,00,04
5854718,00000013,false,Rx,0,8,00,CF,00,07,9F,6B,00,FF
5864719,00000024,false,Rx,0,5,A5,F9,2F,22,0F,00,00,00
5884710,00000028,false,Rx,0,0,00,00,00,00,00,00,00,00
5894723,00000020,false,Rx,0,6,00,44,0B,00,E0,FF,00,00
5904720,00000026,false,Rx,0,8,38,C5,00,00,00,00,00,00
5914714,00000010,false,Rx,0,8,C0,B9,01,13,00,00,00,32
5924718,00000007,false,Rx,0,0,00,00,00,00,00,00,00,00
5934715,0000002B,false,Rx,0,8,00,00,00,00,FE,8B,0B,FE
5944719,0000000B,false,Rx,0,8,4B,16,56,00,CB,10,00,04
5954719,00000013,false,Rx,0,8,00,CF,00,07,9F,6B,00,FF
5964720,00000024,false,Rx,0,5,A6,F9,2F,22,0E,00,00,00
5974717,00000037,false,Rx,0,8,FF,0F,80,64,8A,CD,DD,47
5984721,0000002E,false,Rx,0,8,00,FC,FF,FF,FF,FF,FF,FF
5994727,00000020,false,Rx,0,6,00,44,0B,00,E0,FF,00,00
6004773,00000026,false,Rx,0,8,38,C5,00,00,00,00,00,00
6014722,0000000A,false,Rx,0,6,94,00,00,2E,FE,FF,00,00
6024722,0000000E,false,Rx,0,8,A9,FD,80,FF,D0,3F,00,FF
6034723,0000002A,false,Rx,0,8,D2,F6,FF,FF,17,00,4C,FF
6044713,0000000B,false,Rx,0,8,54,69,56,00,CA,10,00,04
6054720,00000013,false,Rx,0,8,00,CF,00,07,9F,6B,00,FF
6064721,00000024,false,Rx,0,5,A5,F9,2F,22,0F,00,00,00
6094722,00000020,false,Rx,0,6,00,44,0B,00,E0,FF,00,00
6104722,00000026,false,Rx,0,8,38,C5,00,00,00,00,00,00
6114716,00000010,false,Rx,0,8,C0,B9,01,13,00,00,00,32
6134714,0000002B,false,Rx,0,8,00,00,00,00,FE,8C,0B,FE
6144721,0000000B,false,Rx,0,8,55,A5,57,00,CB,10,00,04
6154725,00000013,false,Rx,0,8,00,CF,00,07,9F,6B,00,FF
6164722,00000024,false,Rx,0,5,A7,F9,2F,22,0D,00,00,00
6174729,00000036,false,Rx,0,8,C8,07,00,AA,FF,C0,00,E0
6184719,0000002E,false,Rx,0,8,00,FC,FF,FF,FF,FF,FF,FF
6194733,00000020,false,Rx,0,6,00,44,0B,00,E0,FF,00,00
6204776,00000026,false,Rx,0,8,38,C5,00,00,00,00,00,00
6214727,0000000A,false,Rx,0,6,96,00,00,2E,FE,FF,00,00
6224718,00000014,false,Rx,0,0,00,00,00,00,00,00,00,00
6234728,0000002A,false,Rx,0,8,D2,F6,FF,FF,17,00,4C,FF
6244719,0000000B,false,Rx,0,8,AA,AA,56,00,CB,10,00,04
6254723,00000013,false,Rx,0,8,00,CF,00,07,9F,6B,00,FF
6264723,00000024,false,Rx,0,5,A6,F9,2F,22,0E,00,00,00
6284717,00000028,false,Rx,0,0,00,00,00,00,00,00,00,00
6294731,00000020,false,Rx,0,6,00,44,0B,00,E0,FF,00,00
6304728,00000026,false,Rx,0,8,38,C5,00,00,00,00,00,00
6314722,00000010,false,Rx,0,8,C0,B6,01,13,00,00,00,32
6324726,00000007,false,Rx,0,0,00,00,00,00,00,00,00,00
6334723,0000002B,false,Rx,0,8,00,00,00,00,FE,8D,0B,FE
6344726,0000000B,false,Rx,0,8,4B,16,56,00,CA,10,00,04
6354727,00000013,false,Rx,0,8,00,CF,00,07,9F,6B,00,FF
6364727,00000024,false,Rx,0,5,A3,F9,2F,22,11,00,00,00
6374724,00000037,false,Rx,0,8,FF,0F,80,64,8A,CD,DD,47
6384728,0000002E,false,Rx,0,8,00,FC,FF,FF,FF,FF,FF,FF
6394735,00000020,false,Rx,0,6,00,44,0B,00,E0,FF,00,00
6404729,00000026,false,Rx,0,8,38,C5,00,00,00,00,00,00
6414729,0000000A,false,Rx,0,6,96,00,00,2E,FE,FF,00,00
6424730,0000000E,false,Rx,0,8,A9,FD,80,FF,D0,3F,00,FF
6434730,0000002A,false,Rx,0,8,D2,F6,FF,FF,17,00,4C,FF
6444721,0000000B,false,Rx,0,8,54,69,56,00,CA,10,00,04
6454728,00000013,false,Rx,0,8,00,CF,00,07,A1,6B,00,FF
6464728,00000024,false,Rx,0,5,A5,F9,2F,22,0F,00,00,00
6494730,00000020,false,Rx,0,6,00,44,0B,00,E0,FF,00,00
6504730,00000026,false,Rx,0,8,38,C5,00,00,00,00,00,00
6514724,00000010,false,Rx,0,8,C0,B6,01,13,00,00,00,32
6534722,0000002B,false,Rx,0,8,00,00,00,00,FE,8E,0B,FE
6544729,0000000B,false,Rx,0,8,55,A5,56,00,CC,10,00,04
6554729,00000013,false,Rx,0,8,00,CF,00,07,9F,6B,00,FF
6564729,00000024,false,Rx,0,5,A5,F9,2F,22,0F,00,00,00
6574736,00000036,false,Rx,0,8,C8,07,00,AA,FF,C0,00,E0
6584724,0000002E,false,Rx,0,8,00,FC,FF,FF,FF,FF,FF,FF
6594741,00000020,false,Rx,0,6,00,44,0B,00,E0,FF,00,00
6604783,00000026,false,Rx,0,8,38,C5,00,00,00,00,00,00
6614735,0000000A,false,Rx,0,6,96,00,00,2E,FE,FF,00,00
6624726,00000014,false,Rx,0,0,00,00,00,00,00,00,00,00
6634736,0000002A,false,Rx,0,8,D2,F6,FF,FF,17,00,4C,FF
6644726,0000000B,false,Rx,0,8,AA,AA,56,00,CA,10,00,04
6654733,00000013,false,Rx,0,8,00,CF,00,07,9F,6B,00,FF
6664731,00000024,false,Rx,0,5,A6,F9,2F,22,0E,00,00,00
6684725,00000028,false,Rx,0,0,00,00,00,00,00,00,00,00
6694738,00000020,false,Rx,0,6,00,44,0B,00,E0,FF,00,00
6704736,00000026,false,Rx,0,8,38,C5,00,00,00,00,00,00
6714729,00000010,false,Rx,0,8,C0,B9,01,13,00,00,00,32
6724733,00000007,false,Rx,0,0,00,00,00,00,00,00,00,00
6734730,0000002B,false,Rx,0,8,00,00,00,00,FE,8F,0B,FE
6744734,0000000B,false,Rx,0,8,4B,16,56,00,CA,10,00,04
6754734,00000013,false,Rx,0,8,00,CF,00,07,9F,6B,00,FF
6764735,00000024,false,Rx,0,5,A5,F9,2F,22,0F,00,00,00
6774732,00000037,false,Rx,0,8,FF,0F,C0,64,8B,CD,DD,47
6784736,0000002E,false,Rx,0,8,00,FC,FF,FF,FF,FF,FF,FF
6794743,00000020,false,Rx,0,6,00,44,0B,00,E0,FF,00,00
6804737,00000026,false,Rx,0,8,38,C5,00,00,00,00,00,00
6814737,0000000A,false,Rx,0,6,96,00,00,2E,FE,FF,00,00
6824738,0000000E,false,Rx,0,8,A9,FD,80,FF,D0,3F,00,FF
6834738,0000002A,false,Rx,0,8,D2,F6,FF,FF,17,00,4C,FF
6844729,0000000B,false,Rx,0,8,54,69,57,00,CB,10,00,04
6854736,00000013,false,Rx,0,8,00,CF,00,07,9F,6B,00,FF
6864736,00000024,false,Rx,0,5,A5,F9,2F,22,0F,00,00,00
6894737,00000020,false,Rx,0,6,00,44,0B,00,E0,FF,00,00
6904738,00000026,false,Rx,0,8,38,C5,00,00,00,00,00,00
6914732,00000010,false,Rx,0,8,C0,B6,01,13,00,00,00,32
6934729,0000002B,false,Rx,0,8,00,00,00,00,FE,90,0B,FE
6944736,0000000B,false,Rx,0,8,55,A5,56,00,CB,10,00,04
6954737,00000013,false,Rx,0,8,00,CF,00,07,9F,6B,00,FF
6964737,00000024,false,Rx,0,5,A4,F9,2F,22,10,00,00,00
6974744,00000036,false,Rx,0,8,C8,07,00,AA,FF,C0,00,E0
6984731,0000002E,false,Rx,0,8,00,FC,FF,FF,FF,FF,FF,FF
6994748,00000020,false,Rx,0,6,00,44,0B,00,E0,FF,00,00
7004791,00000026,false,Rx,0,8,38,C5,00,00,00,00,00,00
7014742,0000000A,false,Rx,0,6,96,00,00,2E,FE,FF,00,00
7024733,00000014,false,Rx,0,0,00,00,00,00,00,00,00,00
7034743,0000002A,false,Rx,0,8,D2,F6,FF,FF,17,00,4C,FF
7044734,0000000B,false,Rx,0,8,AA,AA,56,00,CB,10,00,04
7054738,00000013,false,Rx,0,8,00,CF,00,07,A1,6B,00,FF
7064738,00000024,false,Rx,0,5,A4,F9,2F,22,10,00,00,00
7084733,00000028,false,Rx,0,0,00,00,00,00,00,00,00,00
7094743,00000020,false,Rx,0,6,00,44,0B,00,E0,FF,00,00
7104743,00000026,false,Rx,0,8,38,C5,00,00,00,00,00,00
7114734,00000010,false,Rx,0,8,C0,B6,01,13,00,00,40,32
7124741,00000007,false,Rx,0,0,00,00,00,00,00,00,00,00
7134738,0000002B,false,Rx,0,8,00,00,00,00,FE,91,0B,FE
7144741,0000000B,false,Rx,0,8,4B,16,56,00,CB,10,00,04
7154742,00000013,false,Rx,0,8,00,CF,00,07,A1,6B,00,FF
7164743,00000024,false,Rx,0,5,A7,F9,2F,22,0D,00,00,00
7174740,00000037,false,Rx,0,8,FF,0F,80,64,8B,CD,DD,47
7184740,0000002E,false,Rx,0,8,00,FC,FF,FF,FF,FF,FF,FF
7194750,00000020,false,Rx,0,6,00,44,0B,00,E0,FF,00,00
7204796,00000026,false,Rx,0,8,38,C5,00,00,00,00,00,00
7214745,0000000A,false,Rx,0,6,96,00,00,2E,FE,FF,00,00
7224745,0000000E,false,Rx,0,8,A9,FD,80,FF,D0,3F,00,FF
7234746,0000002A,false,Rx,0,8,D2,F6,FF,FF,17,00,4C,FF
7244736,0000000B,false,Rx,0,8,54,69,56,00,CC,10,00,04
7254743,00000013,false,Rx,0,8,00,CF,00,07,9F,6B,00,FF
7264744,00000024,false,Rx,0,5,A5,F9,2F,22,0F,00,00,00
7294745,00000020,false,Rx,0,6,00,44,0B,00,E0,FF,00,00
7304745,00000026,false,Rx,0,8,38,C5,00,00,00,00,00,00
7314739,00000010,false,Rx,0,8,C0,B6,01,13,00,00,40,32
7334737,0000002B,false,Rx,0,8,00,00,00,00,FE,92,0B,FE
7344744,0000000B,false,Rx,0,8,55,A5,57,00,CB,10,00,04
7354744,00000013,false,Rx,0,8,00,CF,00,07,9F,6B,00,FF
7364748,0000003C,false,Rx,0,8,61,03,22,62,1B,FF,FF,FF
7374742,00000024,false,Rx,0,5,A7,F9,2F,22,0D,00,00,00
7384752,00000036,false,Rx,0,8,C8,07,00,AA,FF,C0,00,E0
7394739,0000002E,false,Rx,0,8,00,FC,FF,FF,FF,FF,FF,FF
7404805,00000020,false,Rx,0,6,00,44,0B,00,E0,FF,00,00
7414750,00000026,false,Rx,0,8,38,C5,00,00,00,00,00,00
7424741,0000003D,false,Rx,0,8,61,10,0E,62,62,1B,31,45
7434770,0000000A,false,Rx,0,6,96,00,00,2E,FE,FF,00,00
7444742,00000014,false,Rx,0,0,00,00,00,00,00,00,00,00
7454752,0000002A,false,Rx,0,8,D2,F6,FF,FF,17,00,4C,FF
7464743,0000000B,false,Rx,0,8,AA,AA,56,00,CB,10,00,04
7474746,00000013,false,Rx,0,8,00,CF,00,07,9F,6B,00,FF
7484747,0000003D,false,Rx,0,8,61,21,41,38,32,30,30,32
7494757,00000024,false,Rx,0,5,A6,F9,2F,22,0E,00,00,00
7514741,00000028,false,Rx,0,0,00,00,00,00,00,00,00,00
7524752,00000020,false,Rx,0,6,00,44,0B,00,E0,FF,00,00
7534752,00000026,false,Rx,0,8,38,C5,00,00,00,00,00,00
7544743,0000003D,false,Rx,0,8,61,22,31,41,20,FF,FF,FF
7554756,00000010,false,Rx,0,8,C0,B6,01,13,00,00,40,32
7564747,00000007,false,Rx,0,0,00,00,00,00,00,00,00,00
7574744,0000002B,false,Rx,0,8,00,00,00,00,FE,94,0B,FE
7584748,0000000B,false,Rx,0,8,4B,16,56,00,CB,10,00,04
7594748,00000013,false,Rx,0,8,00,CF,00,07,A1,6B,00,FF
7604801,00000024,false,Rx,0,5,A3,F9,2F,22,11,00,00,00
7614746,00000037,false,Rx,0,8,FF,0F,80,64,8A,CD,DD,47
7624792,0000002E,false,Rx,0,8,00,FC,FF,FF,FF,FF,FF,FF
7634760,00000020,false,Rx,0,6,00,44,0B,00,E0,FF,00,00
7644747,0000003C,false,Rx,0,8,61,03,22,64,1B,FF,FF,FF
7654754,00000026,false,Rx,0,8,38,C5,00,00,00,00,00,00
7664751,0000000A,false,Rx,0,6,96,00,00,2E,FE,FF,00,00
7674755,0000000E,false,Rx,0,8,A9,FD,80,FF,D0,3F,00,FF
7684752,0000002A,false,Rx,0,8,D2,F6,FF,FF,17,00,4C,FF
7694746,0000000B,false,Rx,0,8,54,69,55,00,CA,10,00,04
7704753,0000003D,false,Rx,0,8,61,10,07,62,64,1B,30,30
7714766,00000013,false,Rx,0,8,00,CF,00,07,A1,6B,00,FF
7724751,00000024,false,Rx,0,5,A7,F9,2F,22,0D,00,00,00
7754752,00000020,false,Rx,0,6,00,44,0B,00,E0,FF,00,00
7764746,0000003D,false,Rx,0,8,61,21,30,34,FF,FF,FF,FF
7774769,00000026,false,Rx,0,8,38,C5,00,00,00,00,00,00
7784747,00000010,false,Rx,0,8,C0,B6,01,13,00,00,40,32
7804744,0000002B,false,Rx,0,8,00,00,00,00,FE,93,0B,FE
7814754,0000000B,false,Rx,0,8,55,A5,56,00,CA,10,00,04
7824752,00000013,false,Rx,0,8,00,CF,00,07,9F,6B,00,FF
7834755,00000024,false,Rx,0,5,A4,F9,2F,22,10,00,00,00
7844756,0000003C,false,Rx,0,8,61,03,22,66,1B,FF,FF,FF
7854756,00000036,false,Rx,0,8,C8,07,00,AA,FF,C0,00,E0
7864747,0000002E,false,Rx,0,8,00,FC,FF,FF,FF,FF,FF,FF
7874764,00000020,false,Rx,0,6,00,44,0B,00,E0,FF,00,00
7884758,00000026,false,Rx,0,8,38,C5,00,00,00,00,00,00
7894758,0000000A,false,Rx,0,6,96,00,00,2E,FE,FF,00,00
7904749,0000003D,false,Rx,0,8,61,10,0E,62,66,1B,31,45
7914772,00000014,false,Rx,0,0,00,00,00,00,00,00,00,00
7924759,0000002A,false,Rx,0,8,D2,F6,FF,FF,17,00,4C,FF
7934750,0000000B,false,Rx,0,8,AA,AA,56,00,CA,10,00,04
7944757,00000013,false,Rx,0,8,00,CF,00,07,9F,6B,00,FF
7954757,00000024,false,Rx,0,5,A7,F9,2F,22,0D,00,00,00
7974748,0000003D,false,Rx,0,8,61,21,41,38,32,30,30,32
7984765,00000028,false,Rx,0,0,00,00,00,00,00,00,00,00
7994762,00000020,false,Rx,0,6,00,44,0B,00,E0,FF,00,00
8004811,00000026,false,Rx,0,8,38,C5,00,00,00,00,00,00
8014753,00000010,false,Rx,0,8,C0,B6,01,13,00,00,40,32
8024757,0000003D,false,Rx,0,8,61,22,31,41,20,FF,FF,FF
8034767,00000007,false,Rx,0,0,00,00,00,00,00,00,00,00
8044751,0000002B,false,Rx,0,8,00,00,00,00,FE,96,0B,FE
8054758,0000000B,false,Rx,0,8,4B,16,56,00,CC,10,00,04
8064759,00000013,false,Rx,0,8,00,CF,00,07,9F,6B,00,FF
8074759,00000024,false,Rx,0,5,A5,F9,2F,22,0F,00,00,00
8084756,00000037,false,Rx,0,8,FF,0F,80,64,8A,CD,DD,47
8094760,0000002E,false,Rx,0,8,00,FC,FF,FF,FF,FF,FF,FF
8104767,00000020,false,Rx,0,6,00,44,0B,00,E0,FF,00,00
8114761,00000026,false,Rx,0,8,38,C5,00,00,00,00,00,00
8124758,0000003C,false,Rx,0,8,61,03,22,68,1B,FF,FF,FF
8134762,0000000A,false,Rx,0,6,96,00,00,2E,FE,FF,00,00
8144762,0000000E,false,Rx,0,8,A9,FD,80,FF,D0,3F,00,FF
8154763,0000002A,false,Rx,0,8,D2,F6,FF,FF,17,00,4C,FF
8164754,0000000B,false,Rx,0,8,54,69,55,00,CA,10,00,04
8174760,00000013,false,Rx,0,8,00,CF,00,07,9F,6B,00,FF
8184761,0000003D,false,Rx,0,8,61,06,62,68,1B,30,30,32
8194777,00000024,false,Rx,0,5,A5,F9,2F,22,0F,00,00,00
8224759,00000020,false,Rx,0,6,00,44,0B,00,E0,FF,00,00
8234763,00000026,false,Rx,0,8,38,C5,00,00,00,00,00,00
8244754,00000010,false,Rx,0,8,C0,B6,01,13,00,00,80,32
8264754,0000002B,false,Rx,0,8,00,00,00,00,FE,97,0B,FE
8274762,0000000B,false,Rx,0,8,55,A5,56,00,CA,10,00,04
8284765,0000003C,false,Rx,0,8,61,03,22,6A,1B,FF,FF,FF
8294759,00000013,false,Rx,0,8,00,CF,00,07,9F,6B,00,FF
8304763,00000024,false,Rx,0,5,A4,F9,2F,22,10,00,00,00
8314770,00000036,false,Rx,0,8,C8,07,00,AA,FF,C0,00,E0
8324757,0000002E,false,Rx,0,8,00,FC,FF,FF,FF,FF,FF,FF
8334770,00000020,false,Rx,0,6,00,44,0B,00,E0,FF,00,00
8344758,0000003D,false,Rx,0,8,61,10,17,62,6A,1B,30,30
8354788,00000026,false,Rx,0,8,38,C5,00,00,00,00,00,00
8364765,0000000A,false,Rx,0,6,96,00,00,2E,FE,FF,00,00
8374759,00000014,false,Rx,0,0,00,00,00,00,00,00,00,00
8384766,0000002A,false,Rx,0,8,D2,F6,FF,FF,17,00,4C,FF
8394760,0000000B,false,Rx,0,8,AA,AA,55,00,CA,10,00,04
8404816,0000003D,false,Rx,0,8,61,21,30,30,30,30,30,30
8414774,00000013,false,Rx,0,8,00,CF,00,07,9F,6B,00,FF
8424765,00000024,false,Rx,0,5,A6,F9,2F,22,0E,00,00,00
8444756,00000028,false,Rx,0,0,00,00,00,00,00,00,00,00
8454769,00000020,false,Rx,0,6,00,44,0B,00,E0,FF,00,00
8464760,0000003D,false,Rx,0,8,61,22,30,30,30,30,30,30
8474783,00000026,false,Rx,0,8,38,C5,00,00,00,00,00,00
8484761,00000010,false,Rx,0,8,C1,B6,01,13,10,00,80,32
8494764,00000007,false,Rx,0,0,00,00,00,00,00,00,00,00
8504762,0000002B,false,Rx,0,8,00,00,00,00,FE,98,0B,FE
8514765,0000000B,false,Rx,0,8,4B,16,56,00,CB,10,00,04
8524766,0000003D,false,Rx,0,8,61,23,30,30,30,34,36,35
8534776,00000013,false,Rx,0,8,00,CF,00,07,9F,6B,00,FF
8544767,00000024,false,Rx,0,5,A6,F9,2F,22,0E,00,00,00
8554764,00000037,false,Rx,0,8,FF,0F,80,64,8A,CD,DD,47
8564767,0000002E,false,Rx,0,8,00,FC,FF,FF,FF,FF,FF,FF
8574774,00000020,false,Rx,0,6,00,44,0B,00,E0,FF,00,00
8584772,00000026,false,Rx,0,8,38,C5,00,00,00,00,00,00
8594769,0000000A,false,Rx,0,6,96,00,00,2E,FE,FF,00,00
8604818,0000003C,false,Rx,0,8,61,03,22,6C,1B,FF,FF,FF
8614773,0000000E,false,Rx,0,8,A9,FD,80,FF,D0,3F,00,FF
8624770,0000002A,false,Rx,0,8,D2,F6,FF,FF,17,00,4C,FF
8634764,0000000B,false,Rx,0,8,54,69,56,00,CB,10,00,04
8644768,00000013,false,Rx,0,8,00,CF,00,07,9F,6B,00,FF
8654768,00000024,false,Rx,0,5,A7,F9,2F,22,0D,00,00,00
8684760,0000003D,false,Rx,0,8,61,10,10,62,6C,1B,4A,31
8694792,00000020,false,Rx,0,6,00,44,0B,00,E0,FF,00,00
8704770,00000026,false,Rx,0,8,38,C5,00,00,00,00,00,00
8714764,00000010,false,Rx,0,8,C1,B6,01,13,10,00,80,32
8734762,0000003D,false,Rx,0,8,61,21,32,36,20,4A,31,32
8744778,0000002B,false,Rx,0,8,00,00,00,00,FE,99,0B,FE
8754772,0000000B,false,Rx,0,8,55,A5,56,00,CA,10,00,04
8764770,00000013,false,Rx,0,8,00,CF,00,07,9F,6B,00,FF
8774770,00000024,false,Rx,0,5,A5,F9,2F,22,0F,00,00,00
8784767,0000003D,false,Rx,0,8,61,22,36,20,20,20,20,FF
8794790,00000036,false,Rx,0,8,C8,07,00,AA,FF,C0,00,E0
8804814,0000002E,false,Rx,0,8,00,FC,FF,FF,FF,FF,FF,FF
8814782,00000020,false,Rx,0,6,00,44,0B,00,E0,FF,00,00
8824772,00000026,false,Rx,0,8,38,C5,00,00,00,00,00,00
8834773,0000000A,false,Rx,0,6,96,00,00,2E,FE,FF,00,00
8844767,00000014,false,Rx,0,0,00,00,00,00,00,00,00,00
8854777,0000002A,false,Rx,0,8,D2,F6,FF,FF,17,00,4C,FF
8864767,0000000B,false,Rx,0,8,AA,AA,55,00,CA,10,00,04
8874774,00000013,false,Rx,0,8,00,CF,00,07,9F,6B,00,FF
8884775,0000003C,false,Rx,0,8,61,03,22,6E,1B,FF,FF,FF
8894769,00000024,false,Rx,0,5,A6,F9,2F,22,0E,00,00,00
8914766,00000028,false,Rx,0,0,00,00,00,00,00,00,00,00
8924777,00000020,false,Rx,0,6,00,44,0B,00,E0,FF,00,00
8934777,00000026,false,Rx,0,8,38,C5,00,00,00,00,00,00
8944767,0000003D,false,Rx,0,8,61,10,1A,62,6E,1B,56,4C
8954791,00000010,false,Rx,0,8,C1,B6,01,13,10,00,80,32
8964775,00000007,false,Rx,0,0,00,00,00,00,00,00,00,00
8974772,0000002B,false,Rx,0,8,00,00,00,00,FE,99,0B,FE
8984782,0000000B,false,Rx,0,8,4B,16,56,00,CA,10,00,04
8994776,00000013,false,Rx,0,8,00,CF,00,07,9F,6B,00,FF
9004822,0000003D,false,Rx,0,8,61,21,31,2D,30,36,36,31
9014786,00000024,false,Rx,0,5,A5,F9,2F,22,0F,00,00,00
9024771,00000037,false,Rx,0,8,FF,0F,80,64,8A,CD,DD,47
9034778,0000002E,false,Rx,0,8,00,FC,FF,FF,FF,FF,FF,FF
9044785,00000020,false,Rx,0,6,00,44,0B,00,E0,FF,00,00
9054779,00000026,false,Rx,0,8,38,C5,00,00,00,00,00,00
9064769,0000003D,false,Rx,0,8,61,22,35,2E,30,39,2E,32
9074796,0000000A,false,Rx,0,6,96,00,00,2E,FE,FF,00,00
9084780,0000000E,false,Rx,0,8,A9,FD,80,FF,D0,3F,00,FF
9094780,0000002A,false,Rx,0,8,D2,F6,FF,FF,17,00,4C,FF
9104771,0000000B,false,Rx,0,8,54,69,56,00,CA,10,00,04
9114778,00000013,false,Rx,0,8,00,CF,00,07,9F,6B,00,FF
9124779,0000003D,false,Rx,0,8,61,23,30,45,4F,4C,31,30
9134789,00000024,false,Rx,0,5,A5,F9,2F,22,0F,00,00,00
9164777,00000020,false,Rx,0,6,00,44,0B,00,E0,FF,00,00
9174781,00000026,false,Rx,0,8,38,C5,00,00,00,00,00,00
9184771,0000003D,false,Rx,0,8,61,24,34,36,35,FF,FF,FF
9194788,00000010,false,Rx,0,8,C1,B6,01,13,10,00,C0,32
9214773,0000002B,false,Rx,0,8,00,00,00,00,FE,98,0B,FE
9224780,0000000B,false,Rx,0,8,55,A5,56,00,CA,10,00,04
9234780,00000013,false,Rx,0,8,00,CF,00,07,9F,6B,00,FF
9244780,00000024,false,Rx,0,5,A6,F9,2F,22,0E,00,00,00
9254784,00000036,false,Rx,0,8,C8,07,00,AA,FF,C0,00,E0
9264775,0000002E,false,Rx,0,8,00,FC,FF,FF,FF,FF,FF,FF
9274788,00000020,false,Rx,0,6,00,44,0B,00,E0,FF,00,00
9284779,0000003C,false,Rx,0,8,1A,03,22,62,3F,FF,FF,FF
9294783,00000026,false,Rx,0,8,38,C5,00,00,00,00,00,00
9304783,0000000A,false,Rx,0,6,94,00,00,2E,FE,FF,00,00
9314774,00000014,false,Rx,0,0,00,00,00,00,00,00,00,00
9324784,0000002A,false,Rx,0,8,D2,F6,FF,FF,17,00,4C,FF
9334775,0000000B,false,Rx,0,8,AA,AA,56,00,CA,10,00,04
9344781,0000003D,false,Rx,0,8,1A,10,0E,62,62,3F,35,51
9354798,00000013,false,Rx,0,8,00,CF,00,07,9F,6B,00,FF
9364782,00000024,false,Rx,0,5,A3,F9,2F,22,11,00,00,00
9384774,00000028,false,Rx,0,0,00,00,00,00,00,00,00,00
9394787,00000020,false,Rx,0,6,00,44,0B,00,E0,FF,00,00
9404816,0000003D,false,Rx,0,8,1A,21,30,39,30,37,36,35
9414801,00000026,false,Rx,0,8,38,C5,00,00,00,00,00,00
9424775,00000010,false,Rx,0,8,C1,B6,01,13,10,00,C0,32
9434782,00000007,false,Rx,0,0,00,00,00,00,00,00,00,00
9444779,0000002B,false,Rx,0,8,00,00,00,00,FE,98,0B,FE
9454783,0000000B,false,Rx,0,8,4B,16,56,00,CB,10,00,04
9464784,0000003D,false,Rx,0,8,1A,22,39,44,20,FF,FF,FF
9474794,00000013,false,Rx,0,8,00,CF,00,07,9F,6B,00,FF
9484784,00000024,false,Rx,0,5,A8,F9,2F,22,0C,00,00,00
9494781,00000037,false,Rx,0,8,FF,0F,80,64,8A,CD,DD,47
9504785,0000002E,false,Rx,0,8,00,FC,FF,FF,FF,FF,FF,FF
9514792,00000020,false,Rx,0,6,00,44,0B,00,E0,FF,00,00
9524786,00000026,false,Rx,0,8,38,C5,00,00,00,00,00,00
9534786,0000000A,false,Rx,0,6,96,00,00,2E,FE,FF,00,00
9544787,0000000E,false,Rx,0,8,A9,FD,80,FF,D0,3F,00,FF
9554787,0000002A,false,Rx,0,8,D2,F6,FF,FF,17,00,4C,FF
9564781,0000003C,false,Rx,0,8,1A,03,22,64,3F,FF,FF,FF
9574782,0000000B,false,Rx,0,8,54,69,57,00,CA,10,00,04
9584785,00000013,false,Rx,0,8,00,CF,00,07,A1,6B,00,FF
9594786,00000024,false,Rx,0,5,A5,F9,2F,22,0F,00,00,00
9624813,0000003D,false,Rx,0,8,1A,10,07,62,64,3F,30,30
9634810,00000020,false,Rx,0,6,00,44,0B,00,E0,FF,00,00
9644788,00000026,false,Rx,0,8,38,C5,00,00,00,00,00,00
9654782,00000010,false,Rx,0,8,C1,B6,01,13,10,00,C0,32
9674780,0000002B,false,Rx,0,8,00,00,00,00,FE,98,0B,FE
9684786,0000003D,false,Rx,0,8,1A,21,30,33,FF,FF,FF,FF
9694797,0000000B,false,Rx,0,8,55,A5,56,00,CB,10,00,04
9704787,00000013,false,Rx,0,8,00,CF,00,07,A1,6B,00,FF
9714788,00000024,false,Rx,0,5,A5,F9,2F,22,0F,00,00,00
9724795,00000036,false,Rx,0,8,C8,07,00,AA,FF,C0,00,E0
9734782,0000002E,false,Rx,0,8,00,FC,FF,FF,FF,FF,FF,FF
9744795,00000020,false,Rx,0,6,00,44,0B,00,E0,FF,00,00
9754793,00000026,false,Rx,0,8,38,C5,00,00,00,00,00,00
9764787,0000003C,false,Rx,0,8,1A,03,22,66,3F,FF,FF,FF
9774790,0000000A,false,Rx,0,6,96,00,00,2E,FE,FF,00,00
9784784,00000014,false,Rx,0,0,00,00,00,00,00,00,00,00
9794794,0000002A,false,Rx,0,8,D2,F6,FF,FF,17,00,4C,FF
9804821,0000000B,false,Rx,0,8,AA,AA,56,00,CA,10,00,04
9814789,00000013,false,Rx,0,8,00,CF,00,07,A1,6B,00,FF
9824792,0000003D,false,Rx,0,8,1A,10,0E,62,66,3F,35,51
9834806,00000024,false,Rx,0,5,A7,F9,2F,22,0D,00,00,00
9854784,00000028,false,Rx,0,0,00,00,00,00,00,00,00,00
9864794,00000020,false,Rx,0,6,00,44,0B,00,E0,FF,00,00
9874794,00000026,false,Rx,0,8,38,C5,00,00,00,00,00,00
9884785,0000003D,false,Rx,0,8,1A,21,30,39,30,37,36,35
9894802,00000010,false,Rx,0,8,C1,B6,01,13,10,00,C0,32
9904789,00000007,false,Rx,0,0,00,00,00,00,00,00,00,00
9914786,0000002B,false,Rx,0,8,00,00,00,00,FE,97,0B,FE
9924790,0000000B,false,Rx,0,8,4B,16,55,00,CA,10,00,04
9934794,00000013,false,Rx,0,8,00,CF,00,07,9F,6B,00,FF
9944791,0000003D,false,Rx,0,8,1A,22,39,44,20,FF,FF,FF
9954801,00000024,false,Rx,0,5,A5,F9,2F,22,0F,00,00,00
9964789,00000037,false,Rx,0,8,FF,0F,C0,64,8A,CD,DD,47
9974792,0000002E,false,Rx,0,8,00,FC,FF,FF,FF,FF,FF,FF
9984799,00000020,false,Rx,0,6,00,44,0B,00,E0,FF,00,00
9994796,00000026,false,Rx,0,8,38,C5,00,00,00,00,00,00
10004829,0000000A,false,Rx,0,6,96,00,20,2E,FE,FF,00,00
10014797,0000000E,false,Rx,0,8,A9,FD,E4,FF,D0,3F,00,FF
10024811,0000002A,false,Rx,0,8,D2,F6,FF,FF,17,3C,4C,FF
10034788,0000000B,false,Rx,0,8,54,69,57,00,CA,10,00,04
10044798,0000003C,false,Rx,0,8,1A,03,22,68,3F,FF,FF,FF
10054789,00000013,false,Rx,0,8,00,CF,00,07,A1,6B,00,FF
10064793,00000024,false,Rx,0,5,A7,F9,2F,22,0D,00,00,00
10094794,00000020,false,Rx,0,6,00,44,0B,00,E0,FF,00,00
10104788,0000003D,false,Rx,0,8,1A,06,62,68,3F,48,30,32
10114850,00000026,false,Rx,0,8,38,C5,00,00,00,00,00,00
10124789,00000010,false,Rx,0,8,C1,B6,01,13,10,00,C0,32
10144786,0000002B,false,Rx,0,8,00,00,00,00,FE,98,0B,FE
10154797,0000000B,false,Rx,0,8,55,A5,57,00,CA,10,00,04
10164794,00000013,false,Rx,0,8,00,CF,00,07,9F,6B,00,FF
10174798,00000024,false,Rx,0,5,A4,F9,2F,22,10,00,00,00
10184801,00000036,false,Rx,0,8,C7,07,00,AA,FF,C0,00,E0
10194792,0000002E,false,Rx,0,8,00,FC,FF,FF,FF,FF,FF,FF
10204841,0000003C,false,Rx,0,8,1A,03,22,6A,3F,FF,FF,FF
10214799,00000020,false,Rx,0,6,00,44,0B,00,E0,FF,00,00
10224826,00000026,false,Rx,0,8,38,C5,00,00,00,00,00,00
10234800,0000000A,false,Rx,0,6,96,00,20,2E,FE,FF,00,00
10244791,00000014,false,Rx,0,0,00,00,00,00,00,00,00,00
10254801,0000002A,false,Rx,0,8,D2,F6,FF,FF,17,41,4C,FF
10264792,0000003D,false,Rx,0,8,1A,10,17,62,6A,3F,30,30
10274815,0000000B,false,Rx,0,8,AA,AA,56,00,CA,10,00,04
10284799,00000013,false,Rx,0,8,00,CF,00,07,A1,6B,00,FF
10294800,00000024,false,Rx,0,5,A6,F9,2F,22,0E,00,00,00
10314790,00000028,false,Rx,0,0,00,00,00,00,00,00,00,00
10324794,0000003D,false,Rx,0,8,1A,21,30,30,30,30,30,30
10334817,00000020,false,Rx,0,6,00,44,0B,00,E0,FF,00,00
10344802,00000026,false,Rx,0,8,38,C5,00,00,00,00,00,00
10354793,00000010,false,Rx,0,8,C1,B6,01,13,10,00,00,32
10364799,00000007,false,Rx,0,0,00,00,00,00,00,00,00,00
10374797,0000002B,false,Rx,0,8,00,00,00,00,FE,97,0B,FE
10384800,0000003D,false,Rx,0,8,1A,22,30,30,30,30,30,30
10394810,0000000B,false,Rx,0,8,4B,16,56,00,CA,10,00,04
10404837,00000013,false,Rx,0,8,00,CF,00,07,9F,6B,00,FF
10414801,00000024,false,Rx,0,5,A6,F9,2F,22,0E,00,00,00
10424834,00000037,false,Rx,0,8,FF,0F,80,64,8A,C9,DD,47
10434799,0000002E,false,Rx,0,8,00,FC,FF,FF,FF,FF,FF,FF
10444803,0000003D,false,Rx,0,8,1A,23,32,37,36,34,39,37
10454819,00000020,false,Rx,0,6,00,44,0B,00,E0,FF,00,00
10464804,00000026,false,Rx,0,8,38,C5,00,00,00,00,00,00
10474804,0000000A,false,Rx,0,6,96,00,20,2E,FE,FF,00,00
10484804,0000000E,false,Rx,0,8,A9,FD,E4,FF,D0,3F,00,FF
10494805,0000002A,false,Rx,0,8,D2,F6,FF,FF,17,44,4C,FF
10504795,0000000B,false,Rx,0,8,54,69,56,00,CA,10,00,04
10514802,00000013,false,Rx,0,8,00,CF,00,07,A1,6B,00,FF
10524806,0000003C,false,Rx,0,8,1A,03,22,6C,3F,FF,FF,FF
10534797,00000024,false,Rx,0,5,A7,F9,2F,22,0D,00,00,00
10564801,00000020,false,Rx,0,6,00,44,0B,00,E0,FF,00,00
10574805,00000026,false,Rx,0,8,38,C5,00,00,00,00,00,00
10584799,0000003D,false,Rx,0,8,1A,10,10,62,6C,3F,47,32
10594819,00000010,false,Rx,0,8,C1,B6,01,13,10,00,00,32
10614797,0000002B,false,Rx,0,8,00,00,00,00,FE,98,0B,FE
10624804,0000000B,false,Rx,0,8,55,A5,57,00,CA,10,00,04
10634804,00000013,false,Rx,0,8,00,CF,00,07,A1,6B,00,FF
10644805,0000003D,false,Rx,0,8,1A,21,33,38,20,5F,41,51
10654815,00000024,false,Rx,0,5,A5,F9,2F,22,0F,00,00,00
10664809,00000036,false,Rx,0,8,C7,07,00,AA,FF,C0,00,E0
10674800,0000002E,false,Rx,0,8,00,FC,FF,FF,FF,FF,FF,FF
10684813,00000020,false,Rx,0,6,00,44,0B,00,E0,FF,00,00
10694807,00000026,false,Rx,0,8,38,C5,00,00,00,00,00,00
10704801,0000003D,false,Rx,0,8,1A,22,53,20,20,20,20,FF
10714824,0000000A,false,Rx,0,6,96,00,30,2E,FE,FF,00,00
10724799,00000014,false,Rx,0,0,00,00,00,00,00,00,00,00
10734812,0000002A,false,Rx,0,8,D2,F6,FF,FF,17,4B,4C,FF
10744800,0000000B,false,Rx,0,8,AA,AA,56,00,CA,10,00,04
10754806,00000013,false,Rx,0,8,00,CF,00,07,9F,6B,00,FF
10764807,00000024,false,Rx,0,5,A5,F9,2F,22,0F,00,00,00
10784798,00000028,false,Rx,0,0,00,00,00,00,00,00,00,00
10794811,00000020,false,Rx,0,6,00,44,0B,00,E0,FF,00,00
10804838,0000003C,false,Rx,0,8,1A,03,22,6E,3F,FF,FF,FF
10814812,00000026,false,Rx,0,8,38,C5,00,00,00,00,00,00
10824845,00000010,false,Rx,0,8,C1,B6,01,13,10,00,00,32
10834810,00000007,false,Rx,0,0,00,00,00,00,00,00,00,00
10844804,0000002B,false,Rx,0,8,00,00,00,00,FE,97,0B,FE
10854807,0000000B,false,Rx,0,8,4B,16,56,00,CA,10,00,04
10864808,0000003D,false,Rx,0,8,1A,10,1A,62,6E,3F,45,56
10874824,00000013,false,Rx,0,8,00,CF,00,07,9F,6B,00,FF
10884809,00000024,false,Rx,0,5,A6,F9,2F,22,0E,00,00,00
10894806,00000037,false,Rx,0,8,FF,0F,C0,64,8A,CD,DD,47
10904809,0000002E,false,Rx,0,8,00,FC,FF,FF,FF,FF,FF,FF
10914816,00000020,false,Rx,0,6,00,44,0B,00,E0,FF,00,00
10924804,0000003D,false,Rx,0,8,1A,21,4E,2D,41,51,53,32
10934827,00000026,false,Rx,0,8,38,C5,00,00,00,00,00,00
10944811,0000000A,false,Rx,0,6,94,00,30,2E,FE,FF,00,00
10954812,0000000E,false,Rx,0,8,A9,FD,E4,FF,D0,3F,00,FF
10964812,0000002A,false,Rx,0,8,D2,F6,FF,FF,17,50,4C,FF
10974806,0000000B,false,Rx,0,8,54,69,56,00,CB,10,00,04
10984813,0000003D,false,Rx,0,8,1A,22,39,2E,31,30,2E,32
10994820,00000013,false,Rx,0,8,00,CF,00,07,9F,6B,00,FF
11004849,00000024,false,Rx,0,5,A6,F9,2F,22,0E,00,00,00
11034812,00000020,false,Rx,0,6,00,44,0B,00,E0,FF,00,00
11044806,0000003D,false,Rx,0,8,1A,23,30,30,30,30,31,30
11054829,00000026,false,Rx,0,8,38,C5,00,00,00,00,00,00
11064806,00000010,false,Rx,0,8,C1,B6,01,13,10,00,00,32
11084804,0000002B,false,Rx,0,8,00,00,00,00,FE,97,0B,FE
11094814,0000000B,false,Rx,0,8,55,A5,56,00,CA,10,00,04
11104811,0000003D,false,Rx,0,8,1A,24,30,31,43,FF,FF,FF
11114822,00000013,false,Rx,0,8,00,CF,00,07,9F,6B,00,FF
11124855,00000024,false,Rx,0,5,A5,F9,2F,22,0F,00,00,00
11134819,00000036,false,Rx,0,8,C7,07,00,AA,FF,C0,00,E0
11144807,0000002E,false,Rx,0,8,00,FC,FF,FF,FF,FF,FF,FF
11154823,00000020,false,Rx,0,6,00,44,0B,00,E0,FF,00,00
11164817,00000026,false,Rx,0,8,38,C5,00,00,00,00,00,00
11174818,0000000A,false,Rx,0,6,96,00,30,2E,FE,FF,00,00
11184808,00000014,false,Rx,0,0,00,00,00,00,00,00,00,00
11194819,0000002A,false,Rx,0,8,D2,F6,FF,FF,17,54,4C,FF
11204812,0000003C,false,Rx,0,8,19,06,B2,00,FF,7F,FF,FF
11214810,0000000B,false,Rx,0,8,AA,AA,56,00,CA,10,00,04
11224813,00000013,false,Rx,0,8,00,CF,00,07,9F,6B,00,FF
11234814,00000024,false,Rx,0,5,A6,F9,2F,22,0E,00,00,00
11254808,00000028,false,Rx,0,0,00,00,00,00,00,00,00,00
11264812,0000003D,false,Rx,0,0,00,00,00,00,00,00,00,00
11274819,00000020,false,Rx,0,6,00,44,0B,00,E0,FF,00,00
11284819,00000026,false,Rx,0,8,38,C5,00,00,00,00,00,00
11294810,00000010,false,Rx,0,8,C1,B6,01,13,10,00,00,32
11304817,00000007,false,Rx,0,0,00,00,00,00,00,00,00,00
11314811,0000002B,false,Rx,0,8,00,00,00,00,FE,97,0B,FE
11324818,0000003D,false,Rx,0,0,00,00,00,00,00,00,00,00
11334812,0000000B,false,Rx,0,8,4B,16,56,00,CC,10,00,04
11344815,00000013,false,Rx,0,8,00,CF,00,07,9F,6B,00,FF
11354819,00000024,false,Rx,0,5,A6,F9,2F,22,0E,00,00,00
11364813,00000037,false,Rx,0,8,FF,0F,C0,64,8A,C9,DD,47
11374817,0000002E,false,Rx,0,8,00,FC,FF,FF,FF,FF,FF,FF
11384817,0000003D,false,Rx,0,0,00,00,00,00,00,00,00,00
11394821,00000020,false,Rx,0,6,00,44,0B,00,E0,FF,00,00
11404844,00000026,false,Rx,0,8,38,C5,00,00,00,00,00,00
11414821,0000000A,false,Rx,0,6,96,00,30,2E,FE,FF,00,00
11424822,0000000E,false,Rx,0,8,A9,FD,E4,FF,D0,3F,00,FF
11434822,0000002A,false,Rx,0,8,D2,F6,FF,FF,17,5A,4C,FF
11444813,0000003D,false,Rx,0,0,00,00,00,00,00,00,00,00
11454813,0000000B,false,Rx,0,8,54,69,55,00,CA,10,00,04
11464817,00000013,false,Rx,0,8,00,CF,00,07,A1,6B,00,FF
11474821,00000024,false,Rx,0,5,A6,F9,2F,22,0E,00,00,00
11504812,0000003D,false,Rx,0,0,00,00,00,00,00,00,00,00
11514826,00000020,false,Rx,0,6,00,44,0B,00,E0,FF,00,00
11524823,00000026,false,Rx,0,8,38,C5,00,00,00,00,00,00
11534814,00000010,false,Rx,0,8,C1,B6,01,13,10,00,40,32
11554811,0000002B,false,Rx,0,8,00,00,00,00,FE,97,0B,FE
11564821,0000003D,false,Rx,0,0,00,00,00,00,00,00,00,00
11574818,0000000B,false,Rx,0,8,55,A5,56,00,CB,10,00,04
11584822,00000013,false,Rx,0,8,00,CF,00,07,9F,6B,00,FF
11594846,00000024,false,Rx,0,5,A7,F9,2F,22,0D,00,00,00
11604878,00000036,false,Rx,0,8,C7,07,00,AA,FF,C0,00,E0
11614817,0000002E,false,Rx,0,8,00,FC,FF,FF,FF,FF,FF,FF
11624837,0000003D,false,Rx,0,0,00,00,00,00,00,00,00,00
11634828,00000020,false,Rx,0,6,00,44,0B,00,E0,FF,00,00
11644825,00000026,false,Rx,0,8,38,C5,00,00,00,00,00,00
11654825,0000000A,false,Rx,0,6,96,00,40,2E,FE,FF,00,00
11664816,00000014,false,Rx,0,0,00,00,00,00,00,00,00,00
11674826,0000002A,false,Rx,0,8,D2,F6,FF,FF,17,5D,4C,FF
11684817,0000003D,false,Rx,0,0,00,00,00,00,00,00,00,00
11694824,0000000B,false,Rx,0,8,AA,AA,56,00,CA,10,00,04
11704824,00000013,false,Rx,0,8,00,CF,00,07,9F,6B,00,FF
11714824,00000024,false,Rx,0,5,A5,F9,2F,22,0F,00,00,00
11734816,00000028,false,Rx,0,0,00,00,00,00,00,00,00,00
11744823,0000003C,false,Rx,0,8,19,06,B2,00,FF,7F,FF,FF
11754826,00000020,false,Rx,0,6,00,44,0B,00,E0,FF,00,00
11764827,00000026,false,Rx,0,8,38,C5,00,00,00,00,00,00
11774821,00000010,false,Rx,0,8,C1,B6,01,13,10,00,40,32
11784824,00000007,false,Rx,0,0,00,00,00,00,00,00,00,00
11794821,0000002B,false,Rx,0,8,00,00,00,00,FE,97,0B,FE
11804877,0000003D,false,Rx,0,0,00,00,00,00,00,00,00,00
11814822,0000000B,false,Rx,0,8,4B,16,56,00,CB,10,00,04
11824826,00000013,false,Rx,0,8,00,CF,00,07,9F,6B,00,FF
11834827,00000024,false,Rx,0,5,A5,F9,2F,22,0F,00,00,00
11844824,00000037,false,Rx,0,8,FF,0F,C0,64,8A,CD,CD,47
11854824,0000002E,false,Rx,0,8,00,FC,FF,FF,FF,FF,FF,FF
11864828,0000003D,false,Rx,0,0,00,00,00,00,00,00,00,00
11874832,00000020,false,Rx,0,6,00,44,0B,00,E0,FF,00,00
11884829,00000026,false,Rx,0,8,38,C5,00,00,00,00,00,00
11894829,0000000A,false,Rx,0,6,96,00,40,2E,FE,FF,00,00
11904830,0000000E,false,Rx,0,8,A9,FD,E4,FF,D0,3F,00,FF
11914830,0000002A,false,Rx,0,8,D2,F6,FF,FF,17,64,4C,FF
11924821,0000003D,false,Rx,0,0,00,00,00,00,00,00,00,00
11934824,0000000B,false,Rx,0,8,54,69,56,00,CA,10,00,04
11944828,00000013,false,Rx,0,8,00,CF,00,07,9F,6B,00,FF
11954828,00000024,false,Rx,0,5,A7,F9,2F,22,0D,00,00,00
11984820,0000003D,false,Rx,0,0,00,00,00,00,00,00,00,00
11994834,00000020,false,Rx,0,6,00,44,0B,00,E0,FF,00,00
12004883,00000026,false,Rx,0,8,38,C5,00,00,00,00,00,00
12014824,00000010,false,Rx,0,8,C1,B9,01,13,10,00,40,32
12034822,0000002B,false,Rx,0,8,00,00,00,00,FE,97,0B,FE
12044829,0000003D,false,Rx,0,0,00,00,00,00,00,00,00,00
12054826,0000000B,false,Rx,0,8,55,A5,57,00,CA,10,00,04
12064830,00000013,false,Rx,0,8,00,CF,00,07,A1,6B,00,FF
12074830,00000024,false,Rx,0,5,A6,F9,2F,22,0E,00,00,00
12084834,00000036,false,Rx,0,8,C7,07,00,AA,FF,C0,00,E0
12094825,0000002E,false,Rx,0,8,00,FC,FF,FF,FF,FF,FF,FF
12104832,0000003D,false,Rx,0,0,00,00,00,00,00,00,00,00
12114881,00000020,false,Rx,0,6,00,44,0B,00,E0,FF,00,00
12124833,00000026,false,Rx,0,8,38,C5,00,00,00,00,00,00
12134833,0000000A,false,Rx,0,6,96,00,40,2E,FE,FF,00,00
12144827,00000014,false,Rx,0,0,00,00,00,00,00,00,00,00
12154837,0000002A,false,Rx,0,7,D2,F6,FF,FF,17,68,FF,00
12164824,0000003D,false,Rx,0,0,00,00,00,00,00,00,00,00
12174828,0000000B,false,Rx,0,8,AA,AA,56,00,CB,10,00,04
12184832,00000013,false,Rx,0,8,00,CF,00,07,9F,6B,00,FF
12194858,00000024,false,Rx,0,5,A6,F9,2F,22,0E,00,00,00
12214823,00000028,false,Rx,0,0,00,00,00,00,00,00,00,00
12224843,0000003D,false,Rx,0,0,00,00,00,00,00,00,00,00
12234837,00000020,false,Rx,0,6,00,44,0B,00,E0,FF,00,00
12244834,00000026,false,Rx,0,8,38,C5,00,00,00,00,00,00
12254828,00000010,false,Rx,0,8,C1,B9,01,13,10,00,40,32
12264832,00000007,false,Rx,0,0,00,00,00,00,00,00,00,00
12274829,0000002B,false,Rx,0,8,00,00,00,00,FE,96,0B,FE
12284833,0000003D,false,Rx,0,0,00,00,00,00,00,00,00,00
12294853,0000000B,false,Rx,0,8,4B,16,56,00,CA,10,00,04
12304834,00000013,false,Rx,0,8,00,CF,00,07,A1,6B,00,FF
12314834,00000024,false,Rx,0,5,A6,F9,2F,22,0E,00,00,00
12324832,00000037,false,Rx,0,8,FF,0F,C0,64,8A,CD,CD,47
12334835,0000002E,false,Rx,0,8,00,FC,FF,FF,FF,FF,FF,FF
12344842,00000020,false,Rx,0,6,00,44,0B,00,E0,FF,00,00
12354839,00000026,false,Rx,0,8,38,C5,00,00,00,00,00,00
12364833,0000003C,false,Rx,0,8,39,03,22,62,5D,FF,FF,FF
12374840,0000000A,false,Rx,0,6,96,00,40,2E,FE,FF,00,00
12384837,0000000E,false,Rx,0,8,A9,FD,E4,FF,D0,3F,00,FF
12394838,0000002A,false,Rx,0,8,D2,F6,FF,FF,17,6C,4C,FF
12404828,0000000B,false,Rx,0,8,54,69,56,00,CA,10,00,04
12414835,00000013,false,Rx,0,8,00,CF,00,07,9F,6B,00,FF
12424836,0000003D,false,Rx,0,8,39,03,7F,22,31,FF,FF,FF
12434852,00000024,false,Rx,0,5,A6,F9,2F,22,0E,00,00,00
12464837,00000020,false,Rx,0,6,00,44,0B,00,E0,FF,00,00
12474841,00000026,false,Rx,0,8,38,C5,00,00,00,00,00,00
12484832,00000010,false,Rx,0,8,C1,B9,01,13,10,00,40,32
12504829,0000002B,false,Rx,0,8,00,00,00,00,FE,96,0B,FE
12514836,0000000B,false,Rx,0,8,55,A5,55,00,CB,10,00,04
12524843,0000003C,false,Rx,0,8,39,03,22,F1,87,FF,FF,FF
12534834,00000013,false,Rx,0,8,00,CF,00,07,A1,6B,00,FF
12544838,00000024,false,Rx,0,5,A7,F9,2F,22,0D,00,00,00
12554844,00000036,false,Rx,0,8,C7,07,00,AA,FF,C0,00,E0
12564832,0000002E,false,Rx,0,8,00,FC,FF,FF,FF,FF,FF,FF
12574848,00000020,false,Rx,0,6,00,44,0B,00,E0,FF,00,00
12584836,0000003D,false,Rx,0,8,39,10,0E,62,F1,87,31,45
12594863,00000026,false,Rx,0,8,38,C5,00,00,00,00,00,00
12604892,0000000A,false,Rx,0,6,96,00,40,2E,FE,FF,00,00
12614834,00000014,false,Rx,0,0,00,00,00,00,00,00,00,00
12624844,0000002A,false,Rx,0,8,D2,F6,FF,FF,17,72,4C,FF
12634835,0000000B,false,Rx,0,8,AA,AA,56,00,CB,10,00,04
12644842,0000003D,false,Rx,0,8,39,21,41,38,31,36,37,39
12654852,00000013,false,Rx,0,8,00,CF,00,07,9F,6B,00,FF
12664840,00000024,false,Rx,0,5,A8,F9,2F,22,0C,00,00,00
12684834,00000028,false,Rx,0,0,00,00,00,00,00,00,00,00
12694844,00000020,false,Rx,0,6,00,44,0B,00,E0,FF,00,00
12704835,0000003D,false,Rx,0,8,39,22,37,46,20,FF,FF,FF
12714861,00000026,false,Rx,0,8,38,C5,00,00,00,00,00,00
12724855,00000010,false,Rx,0,8,C1,B9,01,13,10,00,80,32
12734843,00000007,false,Rx,0,0,00,00,00,00,00,00,00,00
12744837,0000002B,false,Rx,0,8,00,00,00,00,FE,96,0B,FE
12754843,0000000B,false,Rx,0,8,4B,16,56,00,CA,10,00,04
12764841,00000013,false,Rx,0,8,00,CF,00,07,9F,6B,00,FF
12774844,00000024,false,Rx,0,5,A7,F9,2F,22,0D,00,00,00
12784838,00000037,false,Rx,0,8,FF,0F,C0,64,8A,CD,CD,47
12794845,0000002E,false,Rx,0,8,00,FC,FF,FF,FF,FF,FF,FF
12804862,0000003C,false,Rx,0,8,39,03,22,64,5D,FF,FF,FF
12814846,00000020,false,Rx,0,6,00,44,0B,00,E0,FF,00,00
12824863,00000026,false,Rx,0,8,38,C5,00,00,00,00,00,00
12834847,0000000A,false,Rx,0,6,96,00,50,2E,FE,FF,00,00
12844847,0000000E,false,Rx,0,8,A9,FD,E4,FF,D0,3F,00,FF
12854848,0000002A,false,Rx,0,8,D2,F6,FF,FF,17,75,4C,FF
12864838,0000003D,false,Rx,0,8,39,03,7F,22,31,FF,FF,FF
12874862,0000000B,false,Rx,0,8,54,69,56,00,CA,10,00,04
12884846,00000013,false,Rx,0,8,00,CF,00,07,9F,6B,00,FF
12894846,00000024,false,Rx,0,5,A5,F9,2F,22,0F,00,00,00
12924877,00000020,false,Rx,0,6,00,44,0B,00,E0,FF,00,00
12934848,00000026,false,Rx,0,8,38,C5,00,00,00,00,00,00
12944839,00000010,false,Rx,0,8,C1,B9,01,13,10,00,80,32
12964843,0000003C,false,Rx,0,8,39,03,22,F1,89,FF,FF,FF
12974840,0000002B,false,Rx,0,8,00,00,00,00,FE,96,0B,FE
12984847,0000000B,false,Rx,0,8,55,A5,56,00,CA,10,00,04
12994847,00000013,false,Rx,0,8,00,CF,00,07,9F,6B,00,FF
13004861,00000024,false,Rx,0,5,A7,F9,2F,22,0D,00,00,00
13014855,00000036,false,Rx,0,8,C7,07,00,AA,FF,C0,00,E0
13024842,0000003D,false,Rx,0,8,39,10,07,62,F1,89,30,30
13034865,0000002E,false,Rx,0,8,00,FC,FF,FF,FF,FF,FF,FF
13044856,00000020,false,Rx,0,6,00,44,0B,00,E0,FF,00,00
13054850,00000026,false,Rx,0,8,38,C5,00,00,00,00,00,00
13064850,0000000A,false,Rx,0,6,96,00,50,2E,FE,FF,00,00
13074844,00000014,false,Rx,0,0,00,00,00,00,00,00,00,00
13084845,0000003D,false,Rx,0,8,39,21,30,32,FF,FF,FF,FF
13094865,0000002A,false,Rx,0,8,D2,F6,FF,FF,17,79,4C,FF
13104842,0000000B,false,Rx,0,8,AA,AA,56,00,CB,10,00,04
13114898,00000013,false,Rx,0,8,00,CF,00,07,9F,6B,00,FF
13124866,00000024,false,Rx,0,5,A5,F9,2F,22,0F,00,00,00
13144841,00000028,false,Rx,0,0,00,00,00,00,00,00,00,00
13154854,00000020,false,Rx,0,6,00,44,0B,00,E0,FF,00,00
13164848,0000003C,false,Rx,0,8,39,03,22,66,5D,FF,FF,FF
13174852,00000026,false,Rx,0,8,38,C5,00,00,00,00,00,00
13184842,00000010,false,Rx,0,8,C1,B9,01,13,10,00,80,32
13194849,00000007,false,Rx,0,0,00,00,00,00,00,00,00,00
13204863,0000002B,false,Rx,0,8,00,00,46,14,FE,96,0B,FE
13214850,0000000B,false,Rx,0,8,4B,16,55,00,CA,10,00,04
13224851,0000003D,false,Rx,0,8,39,03,7F,22,31,FF,FF,FF
13234867,00000013,false,Rx,0,8,00,CF,00,07,9F,6B,00,FF
13244851,00000024,false,Rx,0,5,A7,F9,2F,22,0D,00,00,00
13254849,00000037,false,Rx,0,8,FF,0F,C0,64,8A,CD,CD,47
13264852,0000002E,false,Rx,0,8,03,FC,FF,FF,FF,FF,FF,FF
13274859,00000020,false,Rx,0,6,00,44,0B,00,E0,FF,00,00
13284873,00000026,false,Rx,0,8,38,C5,00,00,00,00,40,00
13294854,0000000A,false,Rx,0,6,96,00,50,2E,FE,FF,00,00
13304854,0000000E,false,Rx,0,8,A9,FD,E4,FF,D0,3F,00,FF
13314855,0000002A,false,Rx,0,8,D2,F6,FF,FF,17,7E,4C,FF
13324894,0000003C,false,Rx,0,8,39,03,22,F1,91,FF,FF,FF
13334845,0000000B,false,Rx,0,8,54,69,55,00,CA,10,00,04
13344853,00000013,false,Rx,0,8,00,CF,00,07,A1,6B,00,FF
13354853,00000024,false,Rx,0,5,A7,F9,2F,22,0D,00,00,00
13384848,0000003D,false,Rx,0,8,39,10,0E,62,F1,91,31,45
13394878,00000020,false,Rx,0,6,00,44,0B,00,E0,FF,00,00
13404868,00000026,false,Rx,0,8,38,C5,00,00,00,00,40,00
13414849,00000010,false,Rx,0,8,C1,B9,01,13,10,00,80,32
13434847,0000002B,false,Rx,0,8,00,00,3F,14,FE,96,0B,FE
13444853,0000003D,false,Rx,0,8,39,21,41,38,31,36,37,39
13454864,0000000B,false,Rx,0,8,55,A5,56,00,CA,10,00,04
13464855,00000013,false,Rx,0,8,00,CF,00,07,A1,6B,00,FF
13474855,00000024,false,Rx,0,5,A5,F9,2F,22,0F,00,00,00
13484862,00000036,false,Rx,0,8,C7,07,00,AA,FF,C0,00,E0
13494849,0000002E,false,Rx,0,8,43,FC,FF,FF,FF,FF,FF,FF
13504856,0000003D,false,Rx,0,8,39,22,37,46,20,FF,FF,FF
13514873,00000020,false,Rx,0,6,00,44,0B,00,E0,FF,00,00
13524903,00000026,false,Rx,0,8,38,C5,00,00,00,00,40,00
13534861,0000000A,false,Rx,0,6,96,00,5A,2E,FE,FF,00,00
13544851,00000014,false,Rx,0,0,00,00,00,00,00,00,00,00
13554862,0000002A,false,Rx,0,8,D2,F6,FF,FF,17,7F,4C,FF
13564852,0000000B,false,Rx,0,8,AA,AA,56,00,CB,10,00,04
13574856,00000013,false,Rx,0,8,00,CF,00,07,A1,6B,00,FF
13584856,00000024,false,Rx,0,5,A5,F9,2F,22,0F,00,00,00
13604860,0000003C,false,Rx,0,8,39,03,22,68,5D,FF,FF,FF
13614854,00000028,false,Rx,0,0,00,00,00,00,00,00,00,00
13624904,00000020,false,Rx,0,6,00,44,0B,00,E0,FF,00,00
13634862,00000026,false,Rx,0,8,38,C5,00,00,00,00,40,00
13644852,00000010,false,Rx,0,8,C1,B9,01,13,10,00,80,32
13654859,00000007,false,Rx,0,0,00,00,00,00,00,00,00,00
13664853,0000003D,false,Rx,0,8,39,03,7F,22,31,FF,FF,FF
13674873,0000002B,false,Rx,0,8,00,00,38,14,FE,96,0B,FE
13684858,0000000B,false,Rx,0,8,4B,16,56,00,CB,10,00,04
13694861,00000013,false,Rx,0,8,00,CF,00,07,A1,6C,00,FF
13704858,00000024,false,Rx,0,5,A7,F9,2F,22,0D,00,00,00
13714856,00000037,false,Rx,0,8,FF,0F,C0,64,8A,CD,CD,47
13724901,0000002E,false,Rx,0,8,22,FC,FF,FF,FF,FF,FF,FF
13734869,00000020,false,Rx,0,6,00,44,0B,00,E0,FF,00,00
13744863,00000026,false,Rx,0,8,38,C5,00,00,00,00,40,00
13754864,0000000A,false,Rx,0,6,96,00,5A,2E,FE,FF,00,00
13764858,0000003C,false,Rx,0,8,39,03,22,F1,A3,FF,FF,FF
13774865,0000000E,false,Rx,0,8,A9,FD,E4,FF,DA,3F,00,FF
13784862,0000002A,false,Rx,0,8,D2,F6,FF,FF,17,7F,4C,FF
13794856,0000000B,false,Rx,0,8,54,69,56,00,CB,10,00,04
13804869,00000013,false,Rx,0,8,00,CF,00,07,A1,6C,00,FF
13814863,00000024,false,Rx,0,5,A9,F9,2F,22,0B,00,00,00
13844854,0000003D,false,Rx,0,8,39,06,62,F1,A3,48,30,36
13854887,00000020,false,Rx,0,6,00,44,0B,00,E0,FF,00,00
13864865,00000026,false,Rx,0,8,38,C5,00,00,00,00,40,00
13874856,00000010,false,Rx,0,8,C1,BB,01,13,10,00,C0,32
13894857,0000002B,false,Rx,0,8,00,00,33,16,FE,96,0B,FE
13904864,0000000B,false,Rx,0,8,55,A5,56,00,CA,10,00,04
13914864,00000013,false,Rx,0,8,00,CF,00,07,A1,6C,00,FF
13924868,0000003C,false,Rx,0,8,39,03,22,6A,5D,FF,FF,FF
13934858,00000024,false,Rx,0,5,A7,F9,2F,22,0D,00,00,00
13944868,00000036,false,Rx,0,8,C7,07,00,AA,FF,C0,00,E0
13954859,0000002E,false,Rx,0,8,19,FC,FF,FF,FF,FF,FF,FF
13964873,00000020,false,Rx,0,6,00,45,0B,36,E0,FF,00,00
13974866,00000026,false,Rx,0,8,38,C5,00,00,00,00,40,00
13984857,0000003D,false,Rx,0,8,39,03,7F,22,31,FF,FF,FF
13994887,0000000A,false,Rx,0,6,96,00,5A,2E,FE,FF,00,00
14004865,00000014,false,Rx,0,0,00,00,00,00,00,00,00,00
14014868,0000002A,false,Rx,0,8,D2,F6,FF,FF,17,81,4C,FF
14024901,0000000B,false,Rx,0,8,AA,AA,56,00,CC,10,00,24
14034866,00000013,false,Rx,0,8,00,CF,00,07,A1,6C,00,FF
14044866,00000024,false,Rx,0,5,A7,F9,2F,22,0D,00,00,00
14064857,00000028,false,Rx,0,0,00,00,00,00,00,00,00,00
14074871,00000020,false,Rx,0,6,00,45,0B,36,E0,FF,00,00
14084865,0000003C,false,Rx,0,8,39,03,22,F1,8C,FF,FF,FF
14094868,00000026,false,Rx,0,8,38,C5,00,00,00,00,40,00
14104859,00000010,false,Rx,0,8,C1,BB,01,13,10,00,C0,32
14114915,00000007,false,Rx,0,0,00,00,00,00,00,00,00,00
14124879,0000002B,false,Rx,0,8,00,00,2D,17,FE,96,0B,FE
14134867,0000000B,false,Rx,0,8,4B,16,56,00,CA,10,00,24
14144867,0000003D,false,Rx,0,8,39,10,17,62,F1,8C,31,45
14154884,00000013,false,Rx,0,8,00,CF,00,07,9F,6C,00,FF
14164868,00000024,false,Rx,0,5,A5,F9,2F,22,0F,00,00,00
14174865,00000037,false,Rx,0,8,FF,0F,C0,64,8A,CD,CD,47
14184869,0000002E,false,Rx,0,8,24,FC,FF,FF,FF,FF,FF,FF
14194876,00000020,false,Rx,0,6,00,45,0B,36,E0,FF,00,00
14204867,0000003D,false,Rx,0,8,39,21,41,38,31,36,37,39
14214886,00000026,false,Rx,0,8,38,C5,00,00,00,00,40,00
14224913,0000000A,false,Rx,0,6,94,00,5A,AE,FE,FF,00,00
14234871,0000000E,false,Rx,0,8,A9,FD,E4,FF,DA,3F,00,FF
14244872,0000002A,false,Rx,0,8,D2,F6,FF,FF,17,82,4C,FF
14254862,0000000B,false,Rx,0,8,54,69,56,01,CA,10,00,24
14264869,0000003D,false,Rx,0,8,39,22,37,46,31,34,31,31
14274879,00000013,false,Rx,0,8,00,CF,00,07,9F,6C,00,FF
14284889,00000024,false,Rx,0,5,A6,F9,2F,22,0E,00,00,00
14314871,00000020,false,Rx,0,6,00,45,0B,36,E0,FF,00,00
14324865,0000003D,false,Rx,0,8,39,23,32,30,30,30,35,33
14334892,00000026,false,Rx,0,8,38,C5,00,00,00,00,40,00
14344863,00000010,false,Rx,0,8,C1,BB,01,13,10,00,C0,32
14364864,0000002B,false,Rx,0,8,00,00,29,19,FE,95,0B,FE
14374871,0000000B,false,Rx,0,8,55,A5,56,01,CA,10,00,24
14384871,00000013,false,Rx,0,8,00,CF,00,07,9F,6C,00,FF
14394872,00000024,false,Rx,0,5,A5,F9,2F,22,0F,00,00,00
14404875,0000003C,false,Rx,0,8,39,03,22,6C,5D,FF,FF,FF
14414876,00000036,false,Rx,0,8,C7,07,00,AA,FF,C0,00,E0
14424908,0000002E,false,Rx,0,8,2D,FC,FF,FF,FF,FF,FF,FF
14434880,00000020,false,Rx,0,6,00,45,0B,36,E0,FF,00,00
14444880,00000026,false,Rx,0,8,38,C5,00,00,00,00,50,00
14454874,0000000A,false,Rx,0,6,94,00,5A,AE,FE,FF,00,00
14464868,0000003D,false,Rx,0,8,39,03,7F,22,31,FF,FF,FF
14474888,00000014,false,Rx,0,0,00,00,00,00,00,00,00,00
14484875,0000002A,false,Rx,0,8,D2,F6,FF,FF,17,84,4C,FF
14494869,0000000B,false,Rx,0,8,AA,AA,56,01,CA,10,01,24
14504873,00000013,false,Rx,0,8,00,CF,00,07,9F,6C,00,FF
14514873,00000024,false,Rx,0,5,A7,F9,2F,22,0D,00,00,00
14534868,00000028,false,Rx,0,0,00,00,00,00,00,00,00,00
14544885,00000020,false,Rx,0,6,00,45,0B,36,E0,FF,00,00
14554878,00000026,false,Rx,0,8,38,C5,00,00,00,00,50,00
14564872,0000003C,false,Rx,0,8,39,03,22,F1,97,FF,FF,FF
14574869,00000010,false,Rx,0,8,C1,BB,01,13,10,00,C0,32
14584873,00000007,false,Rx,0,0,00,00,00,00,00,00,00,00
14594870,0000002B,false,Rx,0,7,00,00,24,1B,FE,0B,FE,00
14604884,0000000B,false,Rx,0,8,4B,16,56,01,CA,10,01,24
14614878,00000013,false,Rx,0,8,00,CF,00,07,A1,6C,00,FF
14624875,0000003D,false,Rx,0,8,39,10,10,62,F1,97,4A,38
14634892,00000024,false,Rx,0,5,A5,F9,2F,22,0F,00,00,00
14644892,00000037,false,Rx,0,8,FF,0F,C0,64,8A,CD,BD,47
14654876,0000002E,false,Rx,0,8,24,FC,FF,FF,FF,FF,FF,FF
14664883,00000020,false,Rx,0,6,00,45,0B,36,E0,FF,00,00
14674880,00000026,false,Rx,0,8,38,C5,00,00,00,00,50,00
14684871,0000003D,false,Rx,0,8,39,21,34,32,20,65,4B,4B
14694897,0000000A,false,Rx,0,6,96,00,6A,AE,FE,FF,00,00
14704878,0000000E,false,Rx,0,8,A9,FD,E4,FF,DA,3F,00,FF
14714882,0000002A,false,Rx,0,8,D2,F6,FF,FF,17,87,4C,FF
14724873,0000000B,false,Rx,0,8,54,69,56,01,CA,10,04,24
14734880,00000013,false,Rx,0,8,00,CF,00,07,9F,6C,00,FF
14744896,0000003D,false,Rx,0,8,39,22,20,20,20,20,20,FF
14754890,00000024,false,Rx,0,5,A7,F9,2F,22,0D,00,00,00
14784879,00000020,false,Rx,0,6,00,45,0B,36,E0,FF,00,00
14794882,00000026,false,Rx,0,8,38,C5,00,00,00,00,50,00
14804873,00000010,false,Rx,0,8,C1,BB,01,13,10,00,00,32
14824871,0000002B,false,Rx,0,8,00,00,20,1E,FE,95,0B,FE
14834881,0000000B,false,Rx,0,8,55,A5,56,01,CA,10,05,24
14844901,0000003C,false,Rx,0,8,39,03,22,6E,5D,FF,FF,FF
14854875,00000013,false,Rx,0,8,00,CF,00,07,A1,6C,00,FF
14864879,00000024,false,Rx,0,5,A8,F9,2F,22,0C,00,00,00
14874886,00000036,false,Rx,0,8,C7,07,00,AA,FF,C0,00,E0
14884873,0000002E,false,Rx,0,8,21,FC,FF,FF,FF,FF,FF,FF
14894890,00000020,false,Rx,0,6,00,45,0B,36,E0,FF,00,00
14904874,0000003D,false,Rx,0,8,39,03,7F,22,31,FF,FF,FF
14914904,00000026,false,Rx,0,8,38,C5,00,00,00,00,60,00
14924897,0000000A,false,Rx,0,6,94,00,6A,AE,FE,FF,00,00
14934875,00000014,false,Rx,0,0,00,00,00,00,00,00,00,00
14944905,0000002A,false,Rx,0,8,D2,F6,FF,FF,17,8A,4C,FF
14954876,0000000B,false,Rx,0,8,AA,AA,56,01,CA,10,07,24
14964883,00000013,false,Rx,0,8,00,CF,00,07,9F,6C,00,FF
14974883,00000024,false,Rx,0,5,A8,F9,2F,22,0C,00,00,00
14994875,00000028,false,Rx,0,0,00,00,00,00,00,00,00,00
15004885,0000003C,false,Rx,0,8,39,03,22,F1,7C,FF,FF,FF
15014885,00000020,false,Rx,0,6,00,45,0B,46,E0,FF,00,00
15024886,00000026,false,Rx,0,8,38,C5,00,00,00,00,60,00
15034876,00000010,false,Rx,0,8,C1,BB,01,13,10,00,00,32
15044903,00000007,false,Rx,0,0,00,00,00,00,00,00,00,00
15054877,0000002B,false,Rx,0,8,00,00,1D,20,FE,96,0B,FE
15064884,0000003D,false,Rx,0,8,39,10,1A,62,F1,7C,56,43
15074901,0000000B,false,Rx,0,8,4B,16,56,01,CA,10,0A,24
15084885,00000013,false,Rx,0,8,00,CF,00,07,9F,6C,00,FF
15094885,00000024,false,Rx,0,5,AD,F9,2F,22,07,00,00,00
15104883,00000037,false,Rx,0,8,FF,0F,C0,64,8A,CD,CD,47
15114886,0000002E,false,Rx,0,8,1C,FC,FF,FF,FF,FF,FF,FF
15124929,0000003D,false,Rx,0,8,39,21,50,2D,37,35,37,31
15134903,00000020,false,Rx,0,6,00,45,0B,46,E0,FF,00,00
15144907,00000026,false,Rx,0,8,38,C5,00,00,00,00,60,00
15154888,0000000A,false,Rx,0,6,94,00,6A,AE,FE,FF,00,00
15164888,0000000E,false,Rx,0,8,A9,FD,E4,FF,DA,3F,00,FF
15174889,0000002A,false,Rx,0,8,D2,F6,FF,FF,17,8B,4C,FF
15184880,0000003D,false,Rx,0,8,39,22,34,2E,31,31,2E,32
15194896,0000000B,false,Rx,0,8,54,69,56,01,CA,10,0D,24
15204887,00000013,false,Rx,0,8,00,CF,00,07,9F,6C,00,FF
15214897,00000024,false,Rx,0,5,AD,F9,2F,22,07,00,00,00
15244898,0000003D,false,Rx,0,8,39,23,30,30,30,30,31,30
15254905,00000020,false,Rx,0,6,00,45,0B,46,E0,FF,00,00
15264889,00000026,false,Rx,0,8,38,C5,00,00,00,00,60,00
15274883,00000010,false,Rx,0,8,C1,BB,01,13,10,00,00,32
15294881,0000002B,false,Rx,0,8,00,00,1A,23,FE,96,0B,FE
15304888,0000003D,false,Rx,0,8,39,24,30,35,33,FF,FF,FF
15314898,0000000B,false,Rx,0,8,55,A5,56,01,CA,10,10,24
15324905,00000013,false,Rx,0,8,00,CF,00,07,9F,6C,00,FF
15334889,00000024,false,Rx,0,5,AE,F9,2F,22,06,00,00,00
15344912,00000036,false,Rx,0,8,C7,07,00,AA,FF,C0,00,E0
15354884,0000002E,false,Rx,0,8,1F,FC,FF,FF,FF,FF,FF,FF
15364897,00000020,false,Rx,0,6,00,45,0B,46,E0,FF,00,00
15374891,00000026,false,Rx,0,8,38,C5,00,00,00,00,70,00
15384891,0000000A,false,Rx,0,6,94,00,6A,AE,FE,FF,00,00
15394902,00000014,false,Rx,0,0,00,00,00,00,00,00,00,00
15404889,0000003C,false,Rx,0,8,63,03,22,63,57,FF,FF,FF
15414893,0000002A,false,Rx,0,8,D2,F6,FF,FF,17,8E,4C,FF
15424883,0000000B,false,Rx,0,8,AA,AA,56,01,CA,10,19,24
15434910,00000013,false,Rx,0,8,00,CF,00,07,9F,6C,00,FF
15444910,00000024,false,Rx,0,5,B2,F9,2F,22,02,00,00,00
15464882,0000003D,false,Rx,0,8,63,03,7F,22,31,FF,FF,FF
15474908,00000028,false,Rx,0,0,00,00,00,00,00,00,00,00
15484896,00000020,false,Rx,0,6,00,45,0B,46,E0,FF,00,00
15494912,00000026,false,Rx,0,8,38,C5,00,00,00,00,70,00
15504900,00000010,false,Rx,0,8,C1,BB,01,13,10,00,00,32
15514910,00000007,false,Rx,0,0,00,00,00,00,00,00,00,00
15524907,0000002B,false,Rx,0,8,00,00,18,25,FE,95,0B,FE
15534891,0000000B,false,Rx,0,8,4B,16,56,01,CA,10,1D,24
15544892,00000013,false,Rx,0,8,00,CF,00,07,9F,6C,00,FF
15554892,00000024,false,Rx,0,5,B5,F9,2F,22,FE,00,00,00
15564893,0000003C,false,Rx,0,8,63,03,22,F1,87,FF,FF,FF
15574890,00000037,false,Rx,0,8,FF,0F,C0,64,8A,C9,BD,47
15584913,0000002E,false,Rx,0,8,34,FC,FF,FF,FF,FF,FF,FF
15594920,00000020,false,Rx,0,6,00,45,0B,46,E0,FF,00,00
15604898,00000026,false,Rx,0,8,38,C5,00,00,00,00,70,00
15614895,0000000A,false,Rx,0,6,94,00,6A,AE,FE,FF,00,00
15624889,0000003D,false,Rx,0,8,63,10,0E,62,F1,87,31,45
15634918,0000000E,false,Rx,0,8,A9,FD,E4,FF,DA,3F,00,FF
15644916,0000002A,false,Rx,0,8,D2,F6,FF,FF,17,90,4C,FF
15654893,0000000B,false,Rx,0,8,54,69,57,01,CA,10,21,24
15664894,00000013,false,Rx,0,8,00,CF,00,07,9F,6C,00,FF
15674894,00000024,false,Rx,0,5,B8,F9,2F,22,FB,00,00,00
15704905,0000003D,false,Rx,0,8,63,21,41,39,36,33,35,38
15714932,00000020,false,Rx,0,6,00,45,0B,46,E0,FF,00,00
15724899,00000026,false,Rx,0,8,38,C5,00,00,00,00,70,00
15734910,00000010,false,Rx,0,8,C1,BB,01,13,10,00,00,32
15754901,0000003D,false,Rx,0,8,63,22,31,43,20,FF,FF,FF
15764905,0000002B,false,Rx,0,8,00,00,15,27,FE,95,0B,FE
15774905,0000000B,false,Rx,0,8,55,A5,56,01,CA,10,25,24
15784899,00000013,false,Rx,0,8,00,CF,00,07,9F,6C,00,FF
15794903,00000024,false,Rx,0,5,BA,F9,2F,22,F9,00,00,00
15804903,00000036,false,Rx,0,8,C7,07,00,AA,FF,C0,00,E0
15814910,0000002E,false,Rx,0,8,2A,FC,FF,FF,FF,FF,FF,FF
15824904,00000020,false,Rx,0,6,00,45,0B,46,E0,FF,00,00
15834914,00000026,false,Rx,0,8,38,C5,00,00,00,00,70,00
15844895,0000003C,false,Rx,0,8,63,03,22,65,57,FF,FF,FF
15854909,0000000A,false,Rx,0,6,96,00,6A,AE,FE,FF,00,00
15864893,00000014,false,Rx,0,0,00,00,00,00,00,00,00,00
15874916,0000002A,false,Rx,0,8,D2,F6,FF,FF,17,92,4C,FF
15884893,0000000B,false,Rx,0,8,AA,AA,56,01,CA,10,28,24
15894913,00000013,false,Rx,0,8,00,CF,00,07,A1,6C,00,FF
15904898,0000003D,false,Rx,0,8,63,03,7F,22,31,FF,FF,FF
15914934,00000024,false,Rx,0,5,BC,F9,2F,22,F7,00,00,00
15934909,00000028,false,Rx,0,0,00,00,00,00,00,00,00,00
15944902,00000020,false,Rx,0,6,00,45,0B,46,E0,FF,00,00
15954923,00000026,false,Rx,0,8,38,C5,00,00,00,00,70,00
15964894,00000010,false,Rx,0,8,C1,BB,01,13,10,00,40,32
15974920,00000007,false,Rx,0,0,00,00,00,00,00,00,00,00
15984901,0000002B,false,Rx,0,8,00,00,13,29,FE,95,0B,FE
15994921,0000000B,false,Rx,0,8,4B,16,56,01,CA,10,2A,24
16004905,0000003C,false,Rx,0,8,63,03,22,F1,89,FF,FF,FF
16014915,00000013,false,Rx,0,8,00,CF,00,07,A1,6C,00,FF
16024899,00000024,false,Rx,0,5,C0,F9,2F,22,F3,00,00,00
16034897,00000037,false,Rx,0,8,FF,0F,C0,64,8A,CD,BD,47
16044900,0000002E,false,Rx,0,8,35,FC,FF,FF,FF,FF,FF,FF
16054927,00000020,false,Rx,0,6,00,45,0B,58,E0,FF,00,00
16064901,0000003D,false,Rx,0,8,63,10,07,62,F1,89,30,31
16074944,00000026,false,Rx,0,8,38,C5,00,00,00,00,80,00
16084918,0000000A,false,Rx,0,6,96,00,6A,AE,FE,FF,00,00
16094906,0000000E,false,Rx,0,8,A9,FD,E4,FF,DA,3F,00,FF
16104906,0000002A,false,Rx,0,8,D2,F6,FF,FF,17,96,4C,FF
16114913,0000000B,false,Rx,0,8,54,69,56,01,CA,10,2C,24
16124904,0000003D,false,Rx,0,8,63,21,36,30,FF,FF,FF,FF
16134930,00000013,false,Rx,0,8,00,CF,00,07,9F,6C,00,FF
16144901,00000024,false,Rx,0,5,C1,F9,2F,22,F2,00,00,00
16174922,00000020,false,Rx,0,6,00,45,0B,58,E0,FF,00,00
16184906,00000026,false,Rx,0,8,38,C5,00,00,00,00,80,00
16194900,00000010,false,Rx,0,8,C1,BB,01,13,10,00,40,32
16214920,0000003C,false,Rx,0,8,63,03,22,67,57,FF,FF,FF
16224898,0000002B,false,Rx,0,8,00,00,11,2C,FE,96,0B,FE
16234925,0000000B,false,Rx,0,8,55,A5,57,01,CA,10,34,24
16244906,00000013,false,Rx,0,8,00,CF,00,07,A1,6C,00,FF
16254926,00000024,false,Rx,0,5,C6,F9,2F,22,ED,00,00,00
16264919,0000003D,false,Rx,0,8,63,03,7F,22,31,FF,FF,FF
16274949,00000036,false,Rx,0,8,C7,07,00,AA,FF,C0,00,E0
16284901,0000002E,false,Rx,0,8,36,FC,FF,FF,FF,FF,FF,FF
16294914,00000020,false,Rx,0,6,00,45,0B,58,E0,FF,00,00
16304908,00000026,false,Rx,0,8,38,C5,00,00,00,00,80,00
16314928,0000000A,false,Rx,0,6,94,00,7A,AE,FE,FF,00,00
16324899,00000014,false,Rx,0,0,00,00,00,00,00,00,00,00
16334929,0000002A,false,Rx,0,8,D2,F6,FF,FF,17,97,4C,FF
16344900,0000000B,false,Rx,0,8,AA,AA,56,01,CA,10,35,24
16354927,00000013,false,Rx,0,8,00,CF,00,07,9F,6C,00,FF
16364930,0000003C,false,Rx,0,8,63,03,22,F1,91,FF,FF,FF
16374921,00000024,false,Rx,0,5,C8,F9,2F,22,EB,00,00,00
16394899,00000028,false,Rx,0,0,00,00,00,00,00,00,00,00
16404912,00000020,false,Rx,0,6,00,45,0B,58,E0,FF,00,00
16414910,00000026,false,Rx,0,8,38,C5,00,00,00,00,80,00
16424904,0000003D,false,Rx,0,8,63,10,0E,62,F1,91,31,45
16434943,00000010,false,Rx,0,8,C1,BB,01,13,10,00,40,32
16444908,00000007,false,Rx,0,0,00,00,00,00,00,00,00,00
16454925,0000002B,false,Rx,0,8,00,00,0F,2E,FE,95,0B,FE
16464928,0000000B,false,Rx,0,8,4B,16,56,01,CA,10,36,24
16474929,00000013,false,Rx,0,8,00,CF,00,07,9F,6C,00,FF
16484910,0000003D,false,Rx,0,8,63,21,41,39,36,33,35,38
16494920,00000024,false,Rx,0,5,CA,F9,2F,22,E9,00,00,00
16504927,00000037,false,Rx,0,8,FF,0F,C0,64,8A,CD,BD,47
16514927,0000002E,false,Rx,0,8,2C,FC,FF,FF,FF,FF,FF,FF
16524918,00000020,false,Rx,0,6,00,45,0B,58,E0,FF,00,00
16534931,00000026,false,Rx,0,8,38,C5,00,00,00,00,90,00
16544905,0000003D,false,Rx,0,8,63,22,31,43,20,FF,FF,FF
16554948,0000000A,false,Rx,0,6,94,00,7A,AE,FE,FF,00,00
16564932,0000000E,false,Rx,0,8,A9,FD,E4,FF,DA,3F,00,FF
16574933,0000002A,false,Rx,0,8,D2,F6,FF,FF,17,99,4C,FF
16584924,0000000B,false,Rx,0,8,54,69,56,01,CA,10,37,24
16594911,00000013,false,Rx,0,8,00,CF,00,07,9F,6C,00,FF
16604911,00000024,false,Rx,0,5,CF,F9,2F,22,E4,00,00,00
16634913,00000020,false,Rx,0,6,00,45,0B,58,E0,FF,00,00
16644910,0000003C,false,Rx,0,8,63,03,22,69,57,FF,FF,FF
16654913,00000026,false,Rx,0,8,38,C5,00,00,00,00,90,00
16664924,00000010,false,Rx,0,8,C1,B9,01,13,10,00,40,32
16684921,0000002B,false,Rx,0,8,00,00,0E,31,FE,95,0B,FE
16694912,0000000B,false,Rx,0,8,55,A5,56,01,CA,10,3A,24
16704912,0000003D,false,Rx,0,8,63,03,7F,22,31,FF,FF,FF
16714929,00000013,false,Rx,0,8,00,CF,00,07,A1,6C,00,FF
16724913,00000024,false,Rx,0,5,D1,F9,2F,22,E2,00,00,00
16734920,00000036,false,Rx,0,8,C7,07,00,AA,FF,C0,00,E0
16744908,0000002E,false,Rx,0,8,31,FC,FF,FF,FF,FF,FF,FF
16754921,00000020,false,Rx,0,6,00,45,0B,58,E0,FF,00,00
16764934,00000026,false,Rx,0,8,38,C5,00,00,00,00,90,00
16774919,0000000A,false,Rx,0,6,94,00,7A,AE,FE,FF,00,00
16784909,00000014,false,Rx,0,0,00,00,00,00,00,00,00,00
16794919,0000002A,false,Rx,0,8,D2,F6,FF,FF,17,9B,4C,FF
16804913,0000003C,false,Rx,0,8,63,03,22,F1,A3,FF,FF,FF
16814911,0000000B,false,Rx,0,8,AA,AA,56,02,CA,10,3F,24
16824914,00000013,false,Rx,0,8,00,CF,00,07,A1,6C,00,FF
16834915,00000024,false,Rx,0,5,D4,F9,2F,22,DF,00,00,00
16854909,00000028,false,Rx,0,0,00,00,00,00,00,00,00,00
16864913,0000003D,false,Rx,0,8,63,06,62,F1,A3,30,31,30
16874959,00000020,false,Rx,0,6,00,45,0B,58,E0,FF,00,00
16884920,00000026,false,Rx,0,8,38,C5,00,00,00,00,90,00
16894911,00000010,false,Rx,0,8,C1,BB,01,13,10,00,40,32
16904918,00000007,false,Rx,0,0,00,00,00,00,00,00,00,00
16914912,0000002B,false,Rx,0,7,00,00,0D,33,FE,0B,FE,00
16924918,0000000B,false,Rx,0,8,4B,16,57,02,CA,10,4D,24
16934919,00000013,false,Rx,0,8,00,CF,00,07,9F,6C,00,FF
16944916,00000024,false,Rx,0,5,D6,F9,2F,22,DD,00,00,00
16954917,00000037,false,Rx,0,8,FF,0F,C0,64,8A,CD,BD,47
16964920,0000003C,false,Rx,0,8,63,03,22,6B,57,FF,FF,FF
16974914,0000002E,false,Rx,0,8,32,FC,FF,FF,FF,FF,FF,FF
16984928,00000020,false,Rx,0,6,00,45,0B,6A,E0,FF,00,00
16994922,00000026,false,Rx,0,8,38,C5,00,00,00,00,A0,00
17004922,0000000A,false,Rx,0,6,94,00,7A,AE,FE,FF,00,00
17014922,0000000E,false,Rx,0,8,A9,FD,E4,FF,DA,3F,00,FF
17024913,0000003D,false,Rx,0,8,63,03,7F,22,31,FF,FF,FF
17034943,0000002A,false,Rx,0,8,D2,F6,FF,FF,17,9F,4C,FF
17044914,0000000B,false,Rx,0,8,54,69,56,02,CA,10,52,24
17054921,00000013,false,Rx,0,8,00,CF,00,07,9F,6C,00,FF
17064918,00000024,false,Rx,0,5,DA,F9,2F,22,D9,00,00,00
17094919,00000020,false,Rx,0,6,00,45,0B,6A,E0,FF,00,00
17104923,00000026,false,Rx,0,8,38,C5,00,00,00,00,A0,00
17114927,00000010,false,Rx,0,8,C1,B9,01,13,10,00,80,32
17134918,0000003C,false,Rx,0,8,63,03,22,F1,8C,FF,FF,FF
17144915,0000002B,false,Rx,0,8,00,00,0C,35,FE,95,0B,FE
17154922,0000000B,false,Rx,0,8,55,A5,56,02,CA,10,54,24
17164942,00000013,false,Rx,0,8,00,CF,00,07,9F,6C,00,FF
17174923,00000024,false,Rx,0,5,DF,F9,2F,22,D4,00,00,00
17184920,0000003D,false,Rx,0,8,63,10,17,62,F1,8C,35,33
17194947,00000036,false,Rx,0,8,C7,07,00,AA,FF,C0,00,E0
17204917,0000002E,false,Rx,0,8,39,FC,FF,FF,FF,FF,FF,FF
17214931,00000020,false,Rx,0,6,00,45,0B,6A,E0,FF,00,00
17224925,00000026,false,Rx,0,8,38,C5,00,00,00,00,A0,00
17234925,0000000A,false,Rx,0,6,94,00,7A,AE,FE,FF,00,00
17244916,0000003D,false,Rx,0,8,63,21,39,30,32,32,30,41
17254936,00000014,false,Rx,0,0,00,00,00,00,00,00,00,00
17264927,0000002A,false,Rx,0,8,D2,F6,FF,FF,17,A1,4C,FF
17274917,0000000B,false,Rx,0,8,AA,AA,56,03,CA,10,57,24
17284924,00000013,false,Rx,0,8,00,CF,00,07,9F,6C,00,FF
17294925,00000024,false,Rx,0,5,E1,F9,2F,22,D2,00,00,00
17314916,0000003D,false,Rx,0,8,63,22,41,32,30,33,33,30
17324936,00000028,false,Rx,0,0,00,00,00,00,00,00,00,00
17334926,00000020,false,Rx,0,6,00,45,0B,6A,E0,FF,00,00
17344927,00000026,false,Rx,0,8,38,C5,00,00,00,00,A0,00
17354921,00000010,false,Rx,0,8,C1,B9,01,13,10,00,80,32
17364924,0000003D,false,Rx,0,8,63,23,30,30,30,31,30,35
17374938,00000007,false,Rx,0,0,00,00,00,00,00,00,00,00
17384922,0000002B,false,Rx,0,8,00,00,0B,37,FE,95,0B,FE
17394926,0000000B,false,Rx,0,8,4B,16,56,03,CA,10,5B,24
17404926,00000013,false,Rx,0,8,00,CF,00,07,9F,6C,00,FF
17414927,00000024,false,Rx,0,5,E6,F9,2F,22,CD,00,00,00
17424924,00000037,false,Rx,0,8,FF,0F,C0,64,8A,CD,BD,47
17434927,0000002E,false,Rx,0,8,3B,FC,FF,FF,FF,FF,FF,FF
17444931,0000003C,false,Rx,0,8,63,03,22,6D,57,FF,FF,FF
17454929,00000020,false,Rx,0,6,00,45,0B,6A,E0,FF,00,00
17464929,00000026,false,Rx,0,8,38,C5,00,00,00,00,B0,00
17474929,0000000A,false,Rx,0,6,94,00,8A,AE,FE,FF,00,00
17484930,0000000E,false,Rx,0,8,A9,FD,E4,FF,DA,3F,00,FF
17494930,0000002A,false,Rx,0,8,D2,F6,FF,FF,17,A3,4C,FF
17504921,0000003D,false,Rx,0,8,63,03,7F,22,31,FF,FF,FF
17514944,0000000B,false,Rx,0,8,54,69,57,03,CA,10,60,24
17524928,00000013,false,Rx,0,8,00,CF,00,07,9F,6C,00,FF
17534929,00000024,false,Rx,0,5,E7,F9,2F,22,CC,00,00,00
17564927,00000020,false,Rx,0,6,00,45,0B,6A,E0,FF,00,00
17574930,00000026,false,Rx,0,8,38,C5,00,00,00,00,B0,00
17584924,00000010,false,Rx,0,8,C1,B9,01,13,10,00,80,32
17604925,0000003C,false,Rx,0,8,63,03,22,F1,97,FF,FF,FF
17614925,0000002B,false,Rx,0,8,00,00,0A,3A,FE,95,0B,FE
17624929,0000000B,false,Rx,0,8,55,A5,57,03,CA,10,66,24
17634930,00000013,false,Rx,0,8,00,CF,00,07,9F,6C,00,FF
17644930,00000024,false,Rx,0,5,EC,F9,2F,22,C7,00,00,00
17654937,00000036,false,Rx,0,8,C7,07,00,AA,FF,C0,00,E0
17664924,0000003D,false,Rx,0,8,63,10,10,62,F1,97,30,31
17674947,0000002E,false,Rx,0,8,40,FC,FF,FF,FF,FF,FF,FF
17684938,00000020,false,Rx,0,6,00,45,0B,6A,E0,FF,00,00
17694935,00000026,false,Rx,0,8,38,C5,00,00,00,00,B0,00
17704933,0000000A,false,Rx,0,6,94,00,8A,AE,FE,FF,00,00
17714926,00000014,false,Rx,0,0,00,00,00,00,00,00,00,00
17724927,0000003D,false,Rx,0,8,63,21,32,33,34,35,36,37
17734950,0000002A,false,Rx,0,8,D2,F6,FF,FF,17,A6,4C,FF
17744925,0000000B,false,Rx,0,8,AA,AA,56,03,CA,10,68,24
17754932,00000013,false,Rx,0,8,00,CF,00,07,9F,6C,00,FF
17764932,00000024,false,Rx,0,5,F1,F9,2F,22,C2,00,00,00
17784926,0000003D,false,Rx,0,8,63,22,38,39,30,31,32,FF
17794943,00000028,false,Rx,0,0,00,00,00,00,00,00,00,00
17804937,00000020,false,Rx,0,6,00,45,0B,6A,E0,FF,00,00
17814937,00000026,false,Rx,0,8,38,C5,00,00,00,00,B0,00
17824928,00000010,false,Rx,0,8,C1,B9,01,13,10,00,80,32
17834935,00000007,false,Rx,0,0,00,00,00,00,00,00,00,00
17844929,0000002B,false,Rx,0,8,00,00,0A,3C,FE,95,0B,FE
17854936,0000000B,false,Rx,0,8,4B,16,56,03,CA,10,69,24
17864933,00000013,false,Rx,0,8,00,CF,00,07,9F,6C,00,FF
17874933,00000024,false,Rx,0,5,F4,F9,2F,22,BF,00,00,00
17884934,0000003C,false,Rx,0,8,63,03,22,6F,57,FF,FF,FF
17894931,00000037,false,Rx,0,8,FF,0F,C0,64,8A,CD,BD,47
17904935,0000002E,false,Rx,0,8,3E,FC,FF,FF,FF,FF,FF,FF
17914945,00000020,false,Rx,0,6,00,45,0B,6A,E0,FF,00,00
17924939,00000026,false,Rx,0,8,38,C5,00,00,00,00,C0,00
17934939,0000000A,false,Rx,0,6,94,00,8A,AE,FE,FF,00,00
17944930,0000003D,false,Rx,0,8,63,03,7F,22,31,FF,FF,FF
17954959,0000000E,false,Rx,0,8,A9,FD,E4,FF,DA,3F,00,FF
17964937,0000002A,false,Rx,0,8,D2,F6,FF,FF,17,A7,4C,FF
17974931,0000000B,false,Rx,0,8,54,69,56,03,CA,10,69,24
17984935,00000013,false,Rx,0,8,00,CF,00,07,9F,6C,00,FF
17994935,00000024,false,Rx,0,5,F6,F9,2F,22,BD,00,00,00
18024937,00000020,false,Rx,0,6,00,45,0B,7B,E0,FF,00,00
18034940,00000026,false,Rx,0,8,38,C5,00,00,00,00,C0,00
18044934,0000003C,false,Rx,0,8,63,03,22,F1,7C,FF,FF,FF
18054931,00000010,false,Rx,0,8,C1,B9,01,13,10,00,80,32
18074929,0000002B,false,Rx,0,8,00,00,09,3E,FE,95,0B,FE
18084939,0000000B,false,Rx,0,8,55,A5,57,03,CA,10,69,24
18094936,00000013,false,Rx,0,8,00,CF,00,07,9F,6C,00,FF
18104940,0000003D,false,Rx,0,8,63,10,1A,62,F1,7C,56,4C
18114979,00000024,false,Rx,0,5,FB,F9,2F,22,B8,00,00,00
18124944,00000036,false,Rx,0,8,C7,07,00,AA,FF,C0,00,E0
18134932,0000002E,false,Rx,0,8,46,FC,FF,FF,FF,FF,FF,FF
18144948,00000020,false,Rx,0,6,00,45,0B,7B,E0,FF,00,00
18154942,00000026,false,Rx,0,8,38,C5,00,00,00,00,C0,00
18164933,0000003D,false,Rx,0,8,63,21,31,2D,48,56,36,32
18174959,0000000A,false,Rx,0,6,94,00,8A,AE,FE,FF,00,00
18184934,00000014,false,Rx,0,0,00,00,00,00,00,00,00,00
18194944,0000002A,false,Rx,0,8,D2,F6,FF,FF,17,A8,4C,FF
18204935,0000000B,false,Rx,0,8,AA,AA,57,03,CA,10,6A,24
18214941,00000013,false,Rx,0,8,00,CF,00,07,9F,6C,00,FF
18224942,0000003D,false,Rx,0,8,63,22,35,2E,31,31,2E,32
18234952,00000024,false,Rx,0,5,FE,F9,2F,22,B5,00,00,00
18254933,00000028,false,Rx,0,0,00,00,00,00,00,00,00,00
18264944,00000020,false,Rx,0,6,00,45,0B,7B,E0,FF,00,00
18274944,00000026,false,Rx,0,8,38,C5,00,00,00,00,C0,00
18284935,0000003D,false,Rx,0,8,63,23,30,30,41,30,31,30
18294951,00000010,false,Rx,0,8,C1,B9,01,13,10,00,C0,32
18304942,00000007,false,Rx,0,0,00,00,00,00,00,00,00,00
18314939,0000002B,false,Rx,0,8,00,00,08,41,FE,95,0B,FE
18324943,0000000B,false,Rx,0,8,4B,16,56,04,CA,10,6D,24
18334943,00000013,false,Rx,0,8,00,CF,00,07,9F,6C,00,FF
18344944,0000003D,false,Rx,0,8,63,24,31,30,35,FF,FF,FF
18354954,00000024,false,Rx,0,5,01,FA,2F,22,B2,00,00,00
18364941,00000037,false,Rx,0,8,FF,0F,C0,64,8A,CD,BD,47
18374945,0000002E,false,Rx,0,8,41,FC,FF,FF,FF,FF,FF,FF
18384952,00000020,false,Rx,0,6,00,45,0B,7B,E0,FF,00,00
18394946,00000026,false,Rx,0,8,38,C5,00,00,00,00,D0,00
18404947,0000000A,false,Rx,0,6,96,00,8A,AE,FE,FF,00,00
18414947,0000000E,false,Rx,0,8,A9,FD,E4,FF,DA,3F,00,FF
18424947,0000002A,false,Rx,0,8,D2,F6,FF,FF,17,AA,4C,FF
18434938,0000000B,false,Rx,0,8,54,69,56,04,CA,10,71,24
18444945,00000013,false,Rx,0,8,00,CF,00,07,9F,6C,00,FF
18454945,00000024,false,Rx,0,5,03,FA,2F,22,B0,00,00,00
18484940,0000003C,false,Rx,0,8,64,03,22,63,58,FF,FF,FF
18494947,00000020,false,Rx,0,6,00,45,0B,7B,E0,FF,00,00
18504947,00000026,false,Rx,0,8,38,C5,00,00,00,00,D0,00
18514938,00000010,false,Rx,0,8,C1,B9,01,13,10,00,C0,32
18534939,0000002B,false,Rx,0,8,00,00,08,43,FE,94,0B,FE
18544946,0000003D,false,Rx,0,8,64,10,0E,62,63,58,35,57
18554963,0000000B,false,Rx,0,8,55,A5,57,04,CA,10,75,24
18564947,00000013,false,Rx,0,8,00,CF,00,07,A1,6C,00,FF
18574947,00000024,false,Rx,0,5,05,FA,2F,22,AE,00,00,00
18584951,00000036,false,Rx,0,8,C7,07,00,AA,FF,C0,00,E0
18594941,0000002E,false,Rx,0,8,46,FC,FF,FF,FF,FF,FF,FF
18604949,0000003D,false,Rx,0,7,64,21,41,30,37,35,32,00
18614968,00000020,false,Rx,0,6,00,45,0B,7B,E0,FF,00,00
18624949,00000026,false,Rx,0,8,38,C5,00,00,00,00,D0,00
18634950,0000000A,false,Rx,0,6,96,00,8A,AE,FE,FF,00,00
18644944,00000014,false,Rx,0,0,00,00,00,00,00,00,00,00
18654954,0000002A,false,Rx,0,8,D2,F6,FF,FF,17,AA,4C,FF
18664945,0000003D,false,Rx,0,8,64,22,37,20,20,FF,FF,FF
18674958,0000000B,false,Rx,0,8,AA,AA,57,04,CA,10,78,24
18684949,00000013,false,Rx,0,8,00,CF,00,07,A1,6C,00,FF
18694949,00000024,false,Rx,0,5,0D,FA,2F,22,A6,00,00,00
18714940,00000028,false,Rx,0,0,00,00,00,00,00,00,00,00
18724954,00000020,false,Rx,0,6,00,45,0B,7B,E0,FF,00,00
18734954,00000026,false,Rx,0,8,38,C5,00,00,00,00,D0,00
18744945,00000010,false,Rx,0,8,C1,B9,01,13,10,00,C0,32
18754952,00000007,false,Rx,0,0,00,00,00,00,00,00,00,00
18764949,0000003C,false,Rx,0,8,64,03,22,65,58,FF,FF,FF
18774946,0000002B,false,Rx,0,8,00,00,08,45,FE,94,0B,FE
18784950,0000000B,false,Rx,0,8,4B,16,56,04,CA,10,79,24
18794950,00000013,false,Rx,0,8,00,CF,00,07,9F,6C,00,FF
18804951,00000024,false,Rx,0,5,0E,FA,2F,22,A5,00,00,00
18814948,00000037,false,Rx,0,8,FF,0F,C0,64,8A,CD,BD,47
18824951,0000003D,false,Rx,0,8,64,10,07,62,65,58,30,31
18834968,0000002E,false,Rx,0,8,4D,FC,FF,FF,FF,FF,FF,FF
18844959,00000020,false,Rx,0,6,00,45,0B,7B,E0,FF,00,00
18854956,00000026,false,Rx,0,8,38,C5,00,00,00,00,D0,00
18864953,0000000A,false,Rx,0,6,96,00,8A,AE,FE,FF,00,00
18874957,0000000E,false,Rx,0,8,A9,FD,E4,FF,DA,3F,00,FF
18884948,0000003D,false,Rx,0,8,64,21,30,33,FF,FF,FF,FF
18894971,0000002A,false,Rx,0,8,D2,F6,FF,FF,17,AB,4C,FF
18904945,0000000B,false,Rx,0,8,54,69,56,04,CA,10,7A,24
18914952,00000013,false,Rx,0,8,00,CF,00,07,A1,6C,00,FF
18924952,00000024,false,Rx,0,5,13,FA,2F,22,A0,00,00,00
18954954,00000020,false,Rx,0,6,00,45,0B,8D,E0,FF,00,00
18964951,0000003C,false,Rx,0,8,64,03,22,67,58,FF,FF,FF
18974958,00000026,false,Rx,0,8,38,C5,00,00,00,00,D0,00
18984949,00000010,false,Rx,0,8,C1,B9,01,13,10,00,C0,32
19004946,0000002B,false,Rx,0,8,00,00,08,48,FE,94,0B,FE
19014956,0000000B,false,Rx,0,8,55,A5,57,04,CA,10,7A,24
19024953,0000003D,false,Rx,0,8,64,10,0E,62,67,58,35,57
19034970,00000013,false,Rx,0,8,00,CF,00,07,A1,6C,00,FF
19044954,00000024,false,Rx,0,5,17,FA,2F,22,9C,00,00,00
19054961,00000036,false,Rx,0,8,C7,07,00,AA,FF,C0,00,E0
19064949,0000002E,false,Rx,0,8,51,FC,FF,FF,FF,FF,FF,FF
19074965,00000020,false,Rx,0,6,00,45,0B,8D,E0,FF,00,00
19084950,0000003D,false,Rx,0,7,64,21,41,30,37,35,32,00
19094976,00000026,false,Rx,0,8,38,C5,00,00,00,00,E0,00
19104957,0000000A,false,Rx,0,6,94,00,8A,AE,FE,FF,00,00
19114951,00000014,false,Rx,0,0,00,00,00,00,00,00,00,00
19124961,0000002A,false,Rx,0,8,D2,F6,FF,FF,17,AC,4C,FF
19134952,0000000B,false,Rx,0,8,AA,AA,56,05,CA,10,7B,24
19144959,0000003D,false,Rx,0,8,64,22,37,20,20,FF,FF,FF
19154969,00000013,false,Rx,0,8,00,CF,00,07,9F,6D,00,FF
19164956,00000024,false,Rx,0,5,17,FA,2F,22,9C,00,00,00
19184951,00000028,false,Rx,0,0,00,00,00,00,00,00,00,00
19194961,00000020,false,Rx,0,6,00,45,0B,8D,E0,FF,00,00
19204961,00000026,false,Rx,0,8,38,C5,00,00,00,00,E0,00
19214952,00000010,false,Rx,0,8,C1,BB,01,13,10,00,C0,32
19224959,00000007,false,Rx,0,0,00,00,00,00,00,00,00,00
19234953,0000002B,false,Rx,0,8,00,00,08,4A,FE,95,0B,FE
19244963,0000003C,false,Rx,0,8,64,03,22,69,58,FF,FF,FF
19254954,0000000B,false,Rx,0,8,4B,16,56,05,CA,10,7D,24
19264958,00000013,false,Rx,0,8,00,CF,00,07,9F,6D,00,FF
19274961,00000024,false,Rx,0,5,1B,FA,2F,22,98,00,00,00
19284955,00000037,false,Rx,0,8,FF,0F,C0,64,8A,CD,BD,47
19294959,0000002E,false,Rx,0,8,57,FC,FF,FF,FF,FF,FF,FF
19304959,0000003D,false,Rx,0,8,64,06,62,69,58,48,30,31
19314986,00000020,false,Rx,0,6,00,45,0B,8D,E0,FF,00,00
19324963,00000026,false,Rx,0,8,38,C5,00,00,00,00,E0,00
19334964,0000000A,false,Rx,0,6,96,00,8A,AE,FE,FF,00,00
19344964,0000000E,false,Rx,0,8,A9,FD,E4,FF,DA,3F,00,FF
19354965,0000002A,false,Rx,0,8,D2,F6,FF,FF,17,AC,4C,FF
19364955,0000000B,false,Rx,0,8,54,69,57,05,CA,10,81,24
19374962,00000013,false,Rx,0,8,00,CF,00,07,A1,6D,00,FF
19384963,00000024,false,Rx,0,5,1D,FA,2F,22,96,00,00,00
19414957,0000003C,false,Rx,0,8,64,03,22,6B,58,FF,FF,FF
19424964,00000020,false,Rx,0,6,00,45,0B,8D,E0,FF,00,00
19434965,00000026,false,Rx,0,8,38,C5,00,00,00,00,E0,00
19444955,00000010,false,Rx,0,8,C1,B9,01,13,10,00,00,32
19464956,0000003D,false,Rx,0,8,64,10,17,62,6B,58,30,30
19474979,0000002B,false,Rx,0,8,00,00,08,4C,FE,94,0B,FE
19484964,0000000B,false,Rx,0,8,55,A5,57,05,CA,10,85,24
19494964,00000013,false,Rx,0,8,00,CF,00,07,9F,6D,00,FF
19504964,00000024,false,Rx,0,5,21,FA,2F,22,92,00,00,00
19514971,00000036,false,Rx,0,8,C7,07,00,AA,FF,C0,00,E0
19524959,0000003D,false,Rx,0,8,64,21,30,30,32,32,35,31
19534975,0000002E,false,Rx,0,8,4F,FC,FF,FF,FF,FF,FF,FF
19544973,00000020,false,Rx,0,6,00,45,0B,8D,E0,FF,00,00
19554966,00000026,false,Rx,0,8,38,C5,00,00,00,00,F0,00
19564967,0000000A,false,Rx,0,6,94,00,8A,AE,FE,FF,00,00
19574961,00000014,false,Rx,0,0,00,00,00,00,00,00,00,00
19584961,0000003D,false,Rx,0,8,64,22,30,32,30,31,38,35
19594985,0000002A,false,Rx,0,8,D2,F6,FF,FF,17,AD,4C,FF
19604959,0000000B,false,Rx,0,8,AA,AA,57,06,CA,10,89,24
19614966,00000013,false,Rx,0,8,00,CF,00,07,9F,6D,00,FF
19624966,00000024,false,Rx,0,5,24,FA,2F,22,8F,00,00,00
19644957,0000003D,false,Rx,0,8,64,23,37,30,38,35,30,35
19654977,00000028,false,Rx,0,0,00,00,00,00,00,00,00,00
19664971,00000020,false,Rx,0,6,00,45,0B,8D,E0,FF,00,00
19674969,00000026,false,Rx,0,8,38,C5,00,00,00,00,F0,00
19684959,00000010,false,Rx,0,8,C1,B9,01,13,10,00,00,32
19694966,00000007,false,Rx,0,0,00,00,00,00,00,00,00,00
19704963,0000002B,false,Rx,0,8,00,00,08,4F,FE,94,0B,FE
19714967,0000000B,false,Rx,0,8,4B,16,57,05,CA,10,8A,24
19724971,0000003C,false,Rx,0,8,64,03,22,6D,58,FF,FF,FF
19734961,00000013,false,Rx,0,8,00,CF,00,07,9F,6D,00,FF
19744968,00000024,false,Rx,0,5,28,FA,2F,22,8B,00,00,00
19754966,00000037,false,Rx,0,8,FF,0F,C0,64,8A,CD,BD,47
19764969,0000002E,false,Rx,0,8,57,FC,FF,FF,FF,FF,FF,FF
19774976,00000020,false,Rx,0,6,00,45,0B,8D,E0,FF,00,00
19784964,0000003D,false,Rx,0,8,64,10,10,62,6D,58,45,38
19794993,00000026,false,Rx,0,8,38,C5,00,00,00,00,F0,00
19804971,0000000A,false,Rx,0,6,96,00,8A,AE,FE,FF,00,00
19814971,0000000E,false,Rx,0,8,A9,FD,E4,FF,DA,3F,00,FF
19824972,0000002A,false,Rx,0,8,D2,F6,FF,FF,17,AD,4C,FF
19834966,0000000B,false,Rx,0,8,54,69,56,06,CA,10,8C,24
19844969,0000003D,false,Rx,0,8,64,21,35,37,20,20,20,20
19854980,00000013,false,Rx,0,8,00,CF,00,07,9F,6D,00,FF
19864970,00000024,false,Rx,0,5,2B,FA,2F,22,88,00,00,00
19894972,00000020,false,Rx,0,6,00,45,0B,8D,E0,FF,00,00
19904966,0000003D,false,Rx,0,8,64,22,20,20,20,20,20,FF
19914992,00000026,false,Rx,0,8,38,C5,00,00,00,00,F0,00
19924966,00000010,false,Rx,0,8,C1,BB,01,13,10,00,00,32
19944964,0000002B,false,Rx,0,8,00,00,08,51,FE,94,0B,FE
19954971,0000000B,false,Rx,0,8,55,A5,57,05,C9,10,8C,24
19964971,00000013,false,Rx,0,8,00,CF,00,07,9F,6D,00,FF
19974972,00000024,false,Rx,0,5,2F,FA,2F,22,84,00,00,00
19984979,00000036,false,Rx,0,8,C7,07,00,AA,FF,C0,00,E0
19994966,0000002E,false,Rx,0,8,5B,FC,FF,FF,FF,FF,FF,FF
20004976,0000003C,false,Rx,0,8,64,03,22,6F,58,FF,FF,FF
20014977,00000020,false,Rx,0,6,00,45,0B,9E,E0,FF,00,00
20024974,00000026,false,Rx,0,8,38,C5,00,00,00,00,00,01
20034974,0000000A,false,Rx,0,6,94,00,8A,AE,FE,FF,00,00
20044968,00000014,false,Rx,0,0,00,00,00,00,00,00,00,00
20054978,0000002A,false,Rx,0,8,D2,F6,FF,FF,17,AD,4C,FF
20064969,0000003D,false,Rx,0,8,64,10,1A,62,6F,58,42,58
20074989,0000000B,false,Rx,0,8,AA,AA,57,05,CA,10,8D,24
20084973,00000013,false,Rx,0,8,00,CF,00,07,9F,6D,00,FF
20094974,00000024,false,Rx,0,5,32,FA,2F,22,81,00,00,00
20114965,00000028,false,Rx,0,0,00,00,00,00,00,00,00,00
20124972,0000003D,false,Rx,0,8,64,21,48,2D,30,30,31,31
20134995,00000020,false,Rx,0,6,00,45,0B,9E,E0,FF,00,00
20144976,00000026,false,Rx,0,8,38,C5,00,00,00,00,00,01
20154970,00000010,false,Rx,0,8,C1,BB,01,13,10,00,00,32
20164977,00000007,false,Rx,0,0,00,00,00,00,00,00,00,00
20174971,0000002B,false,Rx,0,8,00,00,08,53,FE,94,0B,FE
20184978,0000003D,false,Rx,0,8,64,22,38,2E,31,31,2E,32
